hour, t(sec), V1, VAngle1, V2, VAngle2, V3, VAngle3, V4, VAngle4, I1, IAngle1, I2, IAngle2, I3, IAngle3, I4, IAngle4
0, 0.00000, 127.029, -0.00049097, 127.029, -120, 127.029, 120, 0, 0, 28.8494, 141.356, 25.9886, 29.1952, 25.5496, -95.6207, 5.76561, -65.9685
0, 1.00000, 127.03, 1.47055E-008, 127.03, -120, 127.03, 120, 0, 0, 6.35981E-005, -88.0528, 6.26181E-005, 153.295, 6.4065E-005, 30.2187, 3.54911E-006, 116.464
0, 2.00000, 127.028, -0.000575588, 127.029, -120.001, 127.029, 119.999, 0, 0, 33.4695, 141.912, 31.1218, 30.5748, 29.9998, -94.8315, 6.90266, -72.5077
0, 3.00000, 127.029, -0.000542907, 127.029, -120.001, 127.029, 119.999, 0, 0, 32.091, 141.014, 29.4364, 29.472, 28.6197, -95.8099, 6.58305, -70.3456
0, 4.00000, 127.029, -0.000521321, 127.029, -120.001, 127.029, 120, 0, 0, 31.1373, 140.459, 28.2922, 28.7435, 27.6731, -96.4288, 6.36133, -68.7604
0, 5.00000, 127.029, -0.000529881, 127.029, -120.001, 127.029, 119.999, 0, 0, 31.132, 141.35, 28.4675, 29.635, 27.729, -95.5197, 6.32838, -69.3017
0, 6.00000, 127.029, -0.000541992, 127.029, -120.001, 127.029, 119.999, 0, 0, 31.2824, 142.344, 28.8312, 30.6429, 27.9422, -94.5013, 6.32773, -70.1003
0, 7.00000, 127.029, -0.000551083, 127.029, -120.001, 127.029, 119.999, 0, 0, 31.3781, 143.127, 29.0927, 31.421, 28.0882, -93.7042, 6.32056, -70.6934
0, 8.00000, 127.029, -0.000552398, 127.029, -120.001, 127.029, 119.999, 0, 0, 31.4106, 143.206, 29.1431, 31.5045, 28.1231, -93.6157, 6.32666, -70.8097
0, 9.00000, 127.029, -0.000548241, 127.029, -120.001, 127.029, 119.999, 0, 0, 31.4267, 142.736, 29.0664, 31.0569, 28.1024, -94.076, 6.3524, -70.6123
0, 10.00000, 127.029, -0.00054482, 127.029, -120.001, 127.029, 119.999, 0, 0, 31.4591, 142.318, 29.0158, 30.6584, 28.0996, -94.486, 6.38021, -70.4497
0, 11.00000, 127.029, -0.000545383, 127.029, -120.001, 127.029, 119.999, 0, 0, 31.5799, 142.158, 29.1149, 30.525, 28.2004, -94.6334, 6.41948, -70.5536
0, 12.00000, 127.029, -0.000555718, 127.029, -120.001, 127.029, 119.999, 0, 0, 32.0009, 142.471, 29.6379, 30.9025, 28.6226, -94.2877, 6.5162, -71.316
0, 13.00000, 127.029, -0.000562496, 127.029, -120.001, 127.029, 119.999, 0, 0, 32.2895, 142.649, 29.9897, 31.1241, 28.9095, -94.0864, 6.58434, -71.8085
0, 14.00000, 127.029, -0.000567455, 127.029, -120.001, 127.029, 119.999, 0, 0, 32.5108, 142.76, 30.2551, 31.2681, 29.128, -93.9586, 6.638, -72.1688
0, 15.00000, 127.029, -0.000575039, 127.029, -120.001, 127.029, 119.999, 0, 0, 32.715, 143.168, 30.5639, 31.6904, 29.353, -93.5379, 6.67426, -72.6577
0, 16.00000, 127.029, -0.000580569, 127.029, -120.001, 127.029, 119.999, 0, 0, 32.8585, 143.473, 30.785, 32.0027, 29.5125, -93.2244, 6.6989, -73.0056
0, 17.00000, 127.029, -0.000585011, 127.029, -120.001, 127.029, 119.999, 0, 0, 32.9703, 143.724, 30.9613, 32.2575, 29.6388, -92.9668, 6.717, -73.2907
0, 18.00000, 127.029, -0.000586537, 127.029, -120.001, 127.029, 119.999, 0, 0, 32.998, 143.83, 31.0134, 32.3612, 29.6729, -92.8594, 6.7198, -73.3836
0, 19.00000, 127.029, -0.000587393, 127.029, -120.001, 127.029, 119.999, 0, 0, 33.0063, 143.902, 31.0379, 32.4308, 29.686, -92.7859, 6.71904, -73.4395
0, 20.00000, 127.029, -0.000588098, 127.029, -120.001, 127.029, 119.999, 0, 0, 33.0111, 143.965, 31.0562, 32.4913, 29.6954, -92.7222, 6.71744, -73.4804
0, 21.00000, 127.029, -0.000570355, 127.029, -120.001, 127.029, 119.999, 0, 0, 32.4841, 143.105, 30.2954, 31.598, 29.1271, -93.605, 6.61734, -72.3522
0, 22.00000, 127.029, -0.000530795, 127.029, -120.001, 127.029, 119.999, 0, 0, 31.3845, 141, 28.6633, 29.3582, 27.9233, -95.7859, 6.41972, -69.7384
0, 23.00000, 127.029, -0.000504327, 127.029, -120.001, 127.029, 120, 0, 0, 30.6871, 139.487, 27.6054, 27.6901, 27.1528, -97.3727, 6.29784, -67.8899
0, 24.00000, 127.029, -0.000485092, 127.029, -120, 127.029, 120, 0, 0, 30.2011, 138.332, 26.8564, 26.3853, 26.6126, -98.5936, 6.21494, -66.4974
0, 25.00000, 127.029, -0.000462975, 127.029, -120, 127.029, 120, 0, 0, 29.6483, 136.974, 26.0059, 24.8052, 25.9995, -100.044, 6.11992, -64.8372
0, 26.00000, 127.029, -0.000448222, 127.029, -120, 127.029, 120, 0, 0, 29.2982, 136.026, 25.4562, 23.679, 25.6075, -101.063, 6.06182, -63.7047
0, 27.00000, 127.029, -0.000436295, 127.029, -120, 127.029, 120, 0, 0, 29.0295, 135.23, 25.0253, 22.7201, 25.3039, -101.922, 6.01851, -62.7773
0, 28.00000, 127.029, -0.000458022, 127.029, -120, 127.029, 120, 0, 0, 29.715, 136.367, 25.9571, 24.1609, 26.0173, -100.669, 6.15626, -64.5993
0, 29.00000, 127.029, -0.00047621, 127.029, -120, 127.029, 120, 0, 0, 30.2994, 137.277, 26.7495, 25.2873, 26.6265, -99.6729, 6.27525, -66.0574
0, 30.00000, 127.028, -0.000490718, 127.029, -120.001, 127.029, 120, 0, 0, 30.7807, 137.961, 27.3951, 26.1243, 27.1261, -98.9264, 6.37603, -67.177
0, 31.00000, 127.028, -0.000512955, 127.029, -120.001, 127.029, 120, 0, 0, 31.4776, 139.049, 28.3593, 27.402, 27.8597, -97.7568, 6.51887, -68.8045
0, 32.00000, 127.028, -0.000539373, 127.029, -120.001, 127.029, 119.999, 0, 0, 32.3053, 140.303, 29.5093, 28.8309, 28.7357, -96.4227, 6.68812, -70.6164
0, 33.00000, 127.028, -0.000556772, 127.029, -120.001, 127.029, 119.999, 0, 0, 32.8639, 141.085, 30.2789, 29.7038, 29.3246, -95.5957, 6.80468, -71.7578
0, 34.00000, 127.028, -0.000547856, 127.029, -120.001, 127.029, 119.999, 0, 0, 32.6097, 140.634, 29.9057, 29.2167, 29.0506, -96.0647, 6.7541, -71.179
0, 35.00000, 127.028, -0.000512687, 127.029, -120.001, 127.029, 120, 0, 0, 31.5809, 138.856, 28.4273, 27.2274, 27.9438, -97.9429, 6.55137, -68.8266
0, 36.00000, 127.028, -0.000486448, 127.029, -120, 127.029, 120, 0, 0, 30.8351, 137.453, 27.3476, 25.6006, 27.14, -99.4431, 6.4061, -66.964
0, 37.00000, 127.028, -0.000470913, 127.029, -120, 127.029, 120, 0, 0, 30.4132, 136.573, 26.7271, 24.5579, 26.6814, -100.392, 6.32621, -65.8233
0, 38.00000, 127.028, -0.000493895, 127.029, -120.001, 127.029, 120, 0, 0, 31.07, 137.818, 27.6713, 26.0374, 27.3854, -99.0486, 6.4552, -67.5264
0, 39.00000, 127.028, -0.000512274, 127.029, -120.001, 127.029, 120, 0, 0, 31.6058, 138.776, 28.4378, 27.1472, 27.9593, -98.0251, 6.56149, -68.8243
0, 40.00000, 127.028, -0.000524403, 127.029, -120.001, 127.029, 120, 0, 0, 31.9649, 139.389, 28.9496, 27.8468, 28.3437, -97.3724, 6.63349, -69.6599
0, 41.00000, 127.028, -0.000541511, 127.029, -120.001, 127.029, 119.999, 0, 0, 32.123, 140.819, 29.4229, 29.3136, 28.6036, -95.9129, 6.62146, -70.6733
0, 42.00000, 127.029, -0.000558073, 127.029, -120.001, 127.029, 119.999, 0, 0, 32.2171, 142.326, 29.8416, 30.8068, 28.8094, -94.3943, 6.58449, -71.6187
0, 43.00000, 127.029, -0.000569253, 127.029, -120.001, 127.029, 119.999, 0, 0, 32.2534, 143.411, 30.1072, 31.855, 28.9275, -93.311, 6.54712, -72.255
0, 44.00000, 127.029, -0.000551661, 127.029, -120.001, 127.029, 119.999, 0, 0, 31.42, 143.11, 29.1304, 31.4298, 28.1133, -93.6639, 6.3424, -70.957
0, 45.00000, 127.029, -0.000523596, 127.029, -120.001, 127.029, 120, 0, 0, 30.317, 142.168, 27.7383, 30.3132, 26.9965, -94.6842, 6.10056, -68.8263
0, 46.00000, 127.029, -0.000502824, 127.029, -120.001, 127.029, 120, 0, 0, 29.4763, 141.482, 26.6919, 29.4603, 26.1519, -95.4404, 5.91608, -67.1049
0, 47.00000, 127.029, -0.0004901, 127.029, -120, 127.029, 120, 0, 0, 28.8901, 141.182, 26, 29.0284, 25.5767, -95.7939, 5.78245, -65.9404
0, 48.00000, 127.029, -0.000487215, 127.029, -120, 127.029, 120, 0, 0, 28.5956, 141.422, 25.725, 29.2043, 25.3146, -95.5758, 5.70001, -65.5464
0, 49.00000, 127.029, -0.000485032, 127.029, -120, 127.029, 120, 0, 0, 28.3355, 141.681, 25.4893, 29.4064, 25.0858, -95.3358, 5.62566, -65.2093
0, 50.00000, 127.029, -0.000483777, 127.029, -120, 127.029, 120, 0, 0, 28.157, 141.891, 25.3325, 29.5762, 24.9302, -95.1394, 5.57377, -64.9902
0, 51.00000, 127.029, -0.000508487, 127.029, -120.001, 127.029, 120, 0, 0, 28.8045, 143.445, 26.3215, 31.2616, 25.6462, -93.5233, 5.66794, -67.0004
0, 52.00000, 127.029, -0.000528258, 127.029, -120.001, 127.029, 120, 0, 0, 29.3169, 144.682, 27.1123, 32.5575, 26.2176, -92.2523, 5.73954, -68.5381
0, 53.00000, 127.029, -0.000541387, 127.029, -120.001, 127.029, 119.999, 0, 0, 29.6519, 145.506, 27.6355, 33.3998, 26.5939, -91.4125, 5.78445, -69.5309
0, 54.00000, 127.029, -0.000533123, 127.029, -120.001, 127.029, 119.999, 0, 0, 29.5539, 144.749, 27.3877, 32.6665, 26.4497, -92.1667, 5.79459, -68.9744
0, 55.00000, 127.029, -0.000522747, 127.029, -120.001, 127.029, 120, 0, 0, 29.4352, 143.798, 27.081, 31.7313, 26.2715, -93.121, 5.80828, -68.2772
0, 56.00000, 127.029, -0.000514241, 127.029, -120.001, 127.029, 120, 0, 0, 29.3705, 142.96, 26.8543, 30.9027, 26.1527, -93.9633, 5.82875, -67.7247
0, 57.00000, 127.029, -0.000507845, 127.029, -120.001, 127.029, 120, 0, 0, 29.3206, 142.338, 26.6836, 30.2793, 26.0629, -94.5919, 5.84239, -67.3056
0, 58.00000, 127.029, -0.000501832, 127.029, -120.001, 127.029, 120, 0, 0, 29.2755, 141.753, 26.5252, 29.6885, 25.9801, -95.1835, 5.85536, -66.9172
0, 59.00000, 127.029, -0.000496904, 127.029, -120.001, 127.029, 120, 0, 0, 29.2579, 141.241, 26.4099, 29.1696, 25.9284, -95.7028, 5.87121, -66.6094
0, 60.00000, 127.029, -0.000499706, 127.029, -120.001, 127.029, 120, 0, 0, 29.4919, 141.112, 26.6392, 29.0885, 26.1397, -95.8157, 5.9353, -66.9363
0, 61.00000, 127.029, -0.000523187, 127.029, -120.001, 127.029, 120, 0, 0, 30.536, 141.719, 27.8891, 29.9092, 27.1702, -95.1218, 6.17548, -68.9218
0, 62.00000, 127.029, -0.000538474, 127.029, -120.001, 127.029, 119.999, 0, 0, 31.2567, 142.021, 28.7334, 30.3425, 27.8756, -94.765, 6.34773, -70.1474
0, 63.00000, 127.029, -0.000549613, 127.029, -120.001, 127.029, 119.999, 0, 0, 31.8147, 142.175, 29.372, 30.5913, 28.416, -94.5718, 6.48587, -71.006
0, 64.00000, 127.029, -0.000557834, 127.029, -120.001, 127.029, 119.999, 0, 0, 32.258, 142.229, 29.866, 30.72, 28.841, -94.4874, 6.59889, -71.6218
0, 65.00000, 127.029, -0.000563581, 127.029, -120.001, 127.029, 119.999, 0, 0, 32.5928, 142.223, 30.2289, 30.769, 29.1582, -94.4719, 6.68648, -72.0454
0, 66.00000, 127.028, -0.00056807, 127.029, -120.001, 127.029, 119.999, 0, 0, 32.8792, 142.176, 30.5306, 30.7698, 29.4265, -94.5006, 6.7637, -72.3799
0, 67.00000, 127.029, -0.000551544, 127.029, -120.001, 127.029, 119.999, 0, 0, 32.1023, 141.864, 29.6189, 30.3398, 28.6659, -94.863, 6.57324, -71.2072
0, 68.00000, 127.029, -0.000532678, 127.029, -120.001, 127.029, 119.999, 0, 0, 31.1544, 141.6, 28.5361, 29.9119, 27.7482, -95.1934, 6.33843, -69.7658
0, 69.00000, 127.029, -0.000517719, 127.029, -120.001, 127.029, 120, 0, 0, 30.3466, 141.482, 27.6362, 29.6391, 26.9748, -95.3726, 6.13635, -68.4989
0, 70.00000, 127.029, -0.000511107, 127.029, -120.001, 127.029, 120, 0, 0, 29.8897, 141.613, 27.1661, 29.6774, 26.5516, -95.2759, 6.01542, -67.8557
0, 71.00000, 127.029, -0.000508902, 127.029, -120.001, 127.029, 120, 0, 0, 29.5634, 141.987, 26.8826, 29.9823, 26.2686, -94.9252, 5.9183, -67.5266
0, 72.00000, 127.029, -0.000507589, 127.029, -120.001, 127.029, 120, 0, 0, 29.323, 142.304, 26.68, 30.247, 26.0627, -94.6254, 5.84474, -67.2923
0, 73.00000, 127.029, -0.000503077, 127.029, -120.001, 127.029, 120, 0, 0, 29.0876, 142.257, 26.4139, 30.1498, 25.8369, -94.6915, 5.78724, -66.8628
0, 74.00000, 127.029, -0.000487307, 127.029, -120, 127.029, 120, 0, 0, 28.8437, 140.958, 25.9084, 28.7905, 25.5182, -96.0238, 5.77917, -65.7382
0, 75.00000, 127.029, -0.000475457, 127.029, -120, 127.029, 120, 0, 0, 28.6975, 139.919, 25.558, 27.6881, 25.3103, -97.0948, 5.78254, -64.9094
0, 76.00000, 127.029, -0.000465779, 127.029, -120, 127.029, 120, 0, 0, 28.612, 139.014, 25.2986, 26.7217, 25.1692, -98.0292, 5.7944, -64.251
0, 77.00000, 127.029, -0.000496795, 127.029, -120.001, 127.029, 120, 0, 0, 29.6866, 140.441, 26.7211, 28.4508, 26.2766, -96.4804, 6.01039, -66.8886
0, 78.00000, 127.029, -0.000524699, 127.029, -120.001, 127.029, 120, 0, 0, 30.6761, 141.624, 28.0228, 29.8427, 27.296, -95.2063, 6.21519, -69.0867
0, 79.00000, 127.029, -0.000543012, 127.029, -120.001, 127.029, 119.999, 0, 0, 31.3483, 142.33, 28.896, 30.6611, 27.9855, -94.4486, 6.35871, -70.4495
0, 80.00000, 127.029, -0.000524533, 127.029, -120.001, 127.029, 120, 0, 0, 30.9158, 141.176, 28.1917, 29.4463, 27.4916, -95.6373, 6.29346, -69.1849
0, 81.00000, 127.029, -0.000491208, 127.029, -120.001, 127.029, 120, 0, 0, 30.1036, 139.123, 26.9096, 27.1906, 26.5769, -97.7863, 6.16315, -66.812
0, 82.00000, 127.029, -0.000468883, 127.029, -120, 127.029, 120, 0, 0, 29.6028, 137.653, 26.0899, 25.5242, 26.0034, -99.3419, 6.08719, -65.1717
0, 83.00000, 127.029, -0.000453758, 127.029, -120, 127.029, 120, 0, 0, 29.3075, 136.576, 25.5716, 24.2857, 25.6532, -100.487, 6.04781, -64.0542
0, 84.00000, 127.029, -0.000445479, 127.029, -120, 127.029, 120, 0, 0, 29.1882, 135.918, 25.3212, 23.5313, 25.497, -101.183, 6.03802, -63.4714
0, 85.00000, 127.029, -0.00043928, 127.029, -120, 127.029, 120, 0, 0, 29.114, 135.403, 25.1457, 22.9382, 25.393, -101.73, 6.03486, -63.0384
0, 86.00000, 127.029, -0.000438333, 127.029, -120, 127.029, 120, 0, 0, 29.1296, 135.283, 25.1392, 22.8077, 25.3986, -101.855, 6.04254, -62.9948
0, 87.00000, 127.029, -0.000466903, 127.029, -120, 127.029, 120, 0, 0, 29.535, 137.56, 26.0013, 25.407, 25.9327, -99.4457, 6.074, -65.0144
0, 88.00000, 127.029, -0.000489991, 127.029, -120.001, 127.029, 120, 0, 0, 29.8475, 139.435, 26.698, 27.4552, 26.3575, -97.4907, 6.08816, -66.5855
0, 89.00000, 127.029, -0.000505435, 127.029, -120.001, 127.029, 120, 0, 0, 30.0372, 140.733, 27.1555, 28.8238, 26.6284, -96.1546, 6.0877, -67.6105
0, 90.00000, 127.029, -0.000508508, 127.029, -120.001, 127.029, 120, 0, 0, 29.9135, 141.288, 27.1292, 29.3568, 26.5511, -95.6028, 6.03454, -67.7159
0, 91.00000, 127.029, -0.000510092, 127.029, -120.001, 127.029, 120, 0, 0, 29.7458, 141.772, 27.0403, 29.8061, 26.4267, -95.1273, 5.97266, -67.7091
0, 92.00000, 127.029, -0.00051127, 127.029, -120.001, 127.029, 120, 0, 0, 29.6154, 142.149, 26.97, 30.1539, 26.3292, -94.7581, 5.92454, -67.6973
0, 93.00000, 127.029, -0.000514607, 127.029, -120.001, 127.029, 120, 0, 0, 29.6281, 142.495, 27.0493, 30.4979, 26.365, -94.4099, 5.91348, -67.9053
0, 94.00000, 127.029, -0.0005184, 127.029, -120.001, 127.029, 120, 0, 0, 29.7064, 142.765, 27.1862, 30.7793, 26.4583, -94.1325, 5.92152, -68.1805
0, 95.00000, 127.029, -0.000521472, 127.029, -120.001, 127.029, 120, 0, 0, 29.7651, 142.993, 27.2937, 31.0139, 26.5299, -93.8997, 5.92659, -68.3991
0, 96.00000, 127.029, -0.000531707, 127.029, -120.001, 127.029, 119.999, 0, 0, 30.0642, 143.546, 27.7274, 31.6068, 26.8521, -93.3266, 5.97859, -69.1755
0, 97.00000, 127.029, -0.000555693, 127.029, -120.001, 127.029, 119.999, 0, 0, 30.8026, 144.746, 28.7735, 32.8815, 27.6419, -92.0844, 6.11165, -70.9479
0, 98.00000, 127.029, -0.000574893, 127.029, -120.001, 127.029, 119.999, 0, 0, 31.3997, 145.672, 29.6166, 33.8413, 28.2804, -91.1337, 6.21999, -72.2996
0, 99.00000, 127.029, -0.000586812, 127.029, -120.001, 127.029, 119.999, 0, 0, 31.7709, 146.237, 30.141, 34.4157, 28.678, -90.5578, 6.2872, -73.1105
0, 100.00000, 127.029, -0.00053637, 127.029, -120.001, 127.029, 119.999, 0, 0, 30.3981, 143.407, 28.0669, 31.5356, 27.1623, -93.4386, 6.06758, -69.6129
0, 101.00000, 127.029, -0.000502646, 127.029, -120.001, 127.029, 120, 0, 0, 29.5615, 141.303, 26.7501, 29.2989, 26.2204, -95.6138, 5.94429, -67.1474
0, 102.00000, 127.029, -0.000477385, 127.029, -120, 127.029, 120, 0, 0, 28.9872, 139.605, 25.8099, 27.4329, 25.5619, -97.3892, 5.86568, -65.2436
0, 103.00000, 127.029, -0.000472718, 127.029, -120, 127.029, 120, 0, 0, 29.0203, 139.043, 25.7396, 26.8531, 25.554, -97.9626, 5.89443, -64.9903
0, 104.00000, 127.029, -0.000472776, 127.029, -120, 127.029, 120, 0, 0, 29.162, 138.802, 25.8447, 26.6343, 25.6703, -98.1981, 5.93823, -65.0931
0, 105.00000, 127.029, -0.000472725, 127.029, -120, 127.029, 120, 0, 0, 29.2928, 138.572, 25.9398, 26.4242, 25.7769, -98.4225, 5.97918, -65.1873
0, 106.00000, 127.029, -0.000476002, 127.029, -120, 127.029, 120, 0, 0, 29.3685, 138.788, 26.0617, 26.6698, 25.8628, -98.1939, 5.99044, -65.4358
0, 107.00000, 127.029, -0.000481347, 127.029, -120, 127.029, 120, 0, 0, 29.406, 139.289, 26.1981, 27.2031, 25.9328, -97.6766, 5.98226, -65.7828
0, 108.00000, 127.029, -0.00048572, 127.029, -120, 127.029, 120, 0, 0, 29.4239, 139.724, 26.3005, 27.6578, 25.9798, -97.2315, 5.97099, -66.0514
0, 109.00000, 127.029, -0.000483714, 127.029, -120, 127.029, 120, 0, 0, 29.2795, 139.766, 26.1534, 27.6686, 25.8478, -97.2004, 5.93283, -65.8293
0, 110.00000, 127.029, -0.000464789, 127.029, -120, 127.029, 120, 0, 0, 28.6389, 138.859, 25.2985, 26.5654, 25.1843, -98.186, 5.80641, -64.2112
0, 111.00000, 127.029, -0.000452241, 127.029, -120, 127.029, 120, 0, 0, 28.2086, 138.252, 24.7294, 25.8078, 24.7409, -98.8518, 5.72234, -63.085
0, 112.00000, 127.029, -0.000442957, 127.029, -120, 127.029, 120, 0, 0, 27.884, 137.806, 24.3051, 25.2371, 24.4084, -99.3456, 5.65849, -62.2235
0, 113.00000, 127.029, -0.000445532, 127.029, -120, 127.029, 120, 0, 0, 27.89, 138.078, 24.3604, 25.5321, 24.4313, -99.0646, 5.651, -62.385
0, 114.00000, 127.029, -0.000447636, 127.029, -120, 127.029, 120, 0, 0, 27.8925, 138.306, 24.4039, 25.778, 24.4483, -98.8283, 5.64394, -62.5212
0, 115.00000, 127.029, -0.000449361, 127.029, -120, 127.029, 120, 0, 0, 27.8876, 138.505, 24.4348, 25.9904, 24.4567, -98.6226, 5.63569, -62.6262
0, 116.00000, 127.029, -0.000483432, 127.029, -120, 127.029, 120, 0, 0, 28.8665, 140.486, 25.8462, 28.3115, 25.5063, -96.504, 5.80399, -65.5279
0, 117.00000, 127.029, -0.000523562, 127.029, -120.001, 127.029, 120, 0, 0, 30.0571, 142.658, 27.5499, 30.7412, 26.7828, -94.2154, 6.01531, -68.6898
0, 118.00000, 127.029, -0.00054998, 127.029, -120.001, 127.029, 119.999, 0, 0, 30.8584, 144.003, 28.6912, 32.1874, 27.6417, -92.8162, 6.16041, -70.6376
0, 119.00000, 127.029, -0.000545455, 127.029, -120.001, 127.029, 119.999, 0, 0, 30.795, 143.632, 28.5475, 31.8223, 27.5564, -93.1875, 6.15884, -70.3357
0, 120.00000, 127.029, -0.000511246, 127.029, -120.001, 127.029, 120, 0, 0, 29.9922, 141.438, 27.2432, 29.5239, 26.6371, -95.4435, 6.04751, -67.9205
0, 121.00000, 127.029, -0.000488291, 127.029, -120, 127.029, 120, 0, 0, 29.5084, 139.849, 26.4148, 27.8065, 26.0685, -97.0954, 5.98688, -66.2614
0, 122.00000, 127.029, -0.000469705, 127.029, -120, 127.029, 120, 0, 0, 29.1502, 138.497, 25.7737, 26.3099, 25.6388, -98.5125, 5.94555, -64.8967
0, 123.00000, 127.029, -0.000453137, 127.029, -120, 127.029, 120, 0, 0, 28.8343, 137.281, 25.2098, 24.9275, 25.2608, -99.7982, 5.90788, -63.6559
0, 124.00000, 127.029, -0.000440741, 127.029, -120, 127.029, 120, 0, 0, 28.6255, 136.323, 24.8114, 23.8237, 25.0017, -100.815, 5.88697, -62.7319
0, 125.00000, 127.029, -0.000430673, 127.029, -120, 127.029, 120, 0, 0, 28.4803, 135.506, 24.5085, 22.8733, 24.8126, -101.685, 5.87606, -61.9894
0, 126.00000, 127.029, -0.000454738, 127.029, -120, 127.029, 120, 0, 0, 29.253, 136.764, 25.5513, 24.4749, 25.6143, -100.297, 6.02874, -64.0838
0, 127.00000, 127.029, -0.000476509, 127.029, -120, 127.029, 120, 0, 0, 29.967, 137.84, 26.5112, 25.81, 26.3557, -99.1183, 6.17352, -65.8705
0, 128.00000, 127.029, -0.00049083, 127.029, -120.001, 127.029, 120, 0, 0, 30.4527, 138.502, 27.1575, 26.6196, 26.8581, -98.3956, 6.27425, -67.0033
0, 129.00000, 127.029, -0.000497372, 127.029, -120.001, 127.029, 120, 0, 0, 30.7001, 138.758, 27.4719, 26.9415, 27.1092, -98.112, 6.32837, -67.522
0, 130.00000, 127.029, -0.000501202, 127.029, -120.001, 127.029, 120, 0, 0, 30.8704, 138.865, 27.6746, 27.0881, 27.277, -97.9904, 6.36828, -67.8291
0, 131.00000, 127.029, -0.000503704, 127.029, -120.001, 127.029, 120, 0, 0, 30.9893, 138.922, 27.8126, 27.1724, 27.3925, -97.9224, 6.39705, -68.0365
0, 132.00000, 127.029, -0.00051463, 127.029, -120.001, 127.029, 120, 0, 0, 31.2232, 139.633, 28.209, 27.9503, 27.6649, -97.1794, 6.4325, -68.7785
0, 133.00000, 127.029, -0.000534284, 127.029, -120.001, 127.029, 119.999, 0, 0, 31.5533, 141.064, 28.8591, 29.4533, 28.0842, -95.7062, 6.46359, -70.0389
0, 134.00000, 127.029, -0.000548962, 127.029, -120.001, 127.029, 119.999, 0, 0, 31.7845, 142.162, 29.3361, 30.5741, 28.3861, -94.5875, 6.47922, -70.9533
