hour, t(sec), P1 (kW), Q1 (kvar), P2 (kW), Q2 (kvar), P3 (kW), Q3 (kvar), P4 (kW), Q4 (kvar)
0, 0.00000, 2.67635, 1.99734, 2.79455, 1.84744, 2.86527, 2.02475, 0, 0
0, 1.00000, -3.27469E-007, 1.28824E-005, -3.00913E-007, 1.26749E-005, -1.34413E-007, 1.28016E-005, 0, 0
0, 2.00000, 3.19844, 2.25446, 3.3534, 2.15048, 3.36597, 2.33668, 0, 0
0, 3.00000, 3.00277, 2.21697, 3.15037, 2.09201, 3.18478, 2.28231, 0, 0
0, 4.00000, 2.87268, 2.1851, 3.01463, 2.04656, 3.06364, 2.23877, 0, 0
0, 5.00000, 2.91902, 2.13988, 3.05661, 2.01036, 3.09998, 2.19427, 0, 0
0, 6.00000, 2.98657, 2.09831, 3.12071, 1.98008, 3.15603, 2.15536, 0, 0
0, 7.00000, 3.03691, 2.06345, 3.16804, 1.9539, 3.19735, 2.12223, 0, 0
0, 8.00000, 3.04438, 2.06119, 3.17538, 1.95242, 3.20408, 2.12026, 0, 0
0, 9.00000, 3.02219, 2.08646, 3.15558, 1.97269, 3.18741, 2.1451, 0, 0
0, 10.00000, 3.00407, 2.10996, 3.13966, 1.9918, 3.17419, 2.1683, 0, 0
0, 11.00000, 3.00877, 2.12549, 3.14602, 2.00646, 3.18048, 2.18484, 0, 0
0, 12.00000, 3.07043, 2.13455, 3.20967, 2.02206, 3.23747, 2.19889, 0, 0
0, 13.00000, 3.11099, 2.14237, 3.25174, 2.03396, 3.27525, 2.21006, 0, 0
0, 14.00000, 3.14085, 2.14961, 3.28289, 2.04413, 3.30322, 2.21987, 0, 0
0, 15.00000, 3.18456, 2.13974, 3.32623, 2.04022, 3.34159, 2.21267, 0, 0
0, 16.00000, 3.21631, 2.13155, 3.35758, 2.03642, 3.36933, 2.20633, 0, 0
0, 17.00000, 3.24182, 2.1243, 3.38276, 2.03278, 3.39154, 2.20059, 0, 0
0, 18.00000, 3.25037, 2.12009, 3.39099, 2.02987, 3.39882, 2.19675, 0, 0
0, 19.00000, 3.2551, 2.11657, 3.39538, 2.02716, 3.40267, 2.19335, 0, 0
0, 20.00000, 3.25893, 2.11335, 3.39893, 2.02462, 3.40578, 2.19023, 0, 0
0, 21.00000, 3.1559, 2.12937, 3.29614, 2.02681, 3.31484, 2.19954, 0, 0
0, 22.00000, 2.92693, 2.17245, 3.06812, 2.03868, 3.11337, 2.22783, 0, 0
0, 23.00000, 2.77373, 2.20332, 2.91575, 2.0483, 2.97899, 2.2488, 0, 0
0, 24.00000, 2.66241, 2.22676, 2.80521, 2.05615, 2.88157, 2.26512, 0, 0
0, 25.00000, 2.53426, 2.25241, 2.67777, 2.06389, 2.76927, 2.28244, 0, 0
0, 26.00000, 2.44883, 2.27081, 2.59297, 2.0702, 2.69464, 2.29533, 0, 0
0, 27.00000, 2.37986, 2.28686, 2.52464, 2.07635, 2.63456, 2.30699, 0, 0
0, 28.00000, 2.50795, 2.2847, 2.65433, 2.09024, 2.74955, 2.31423, 0, 0
0, 29.00000, 2.61514, 2.28312, 2.76305, 2.10197, 2.84597, 2.32063, 0, 0
0, 30.00000, 2.70072, 2.28328, 2.85003, 2.11263, 2.92317, 2.32727, 0, 0
0, 31.00000, 2.83121, 2.27646, 2.98178, 2.12231, 3.04, 2.32978, 0, 0
0, 32.00000, 2.98589, 2.26627, 3.13792, 2.13174, 3.17841, 2.33066, 0, 0
0, 33.00000, 3.08776, 2.26038, 3.24081, 2.1386, 3.26975, 2.33204, 0, 0
0, 34.00000, 3.03589, 2.26821, 3.18924, 2.13939, 3.22412, 2.33661, 0, 0
0, 35.00000, 2.83101, 2.29273, 2.98363, 2.13709, 3.04211, 2.34709, 0, 0
0, 36.00000, 2.67803, 2.31124, 2.83014, 2.13538, 2.90638, 2.35504, 0, 0
0, 37.00000, 2.58757, 2.32379, 2.73941, 2.13585, 2.82625, 2.36132, 0, 0
0, 38.00000, 2.72185, 2.30965, 2.87431, 2.13935, 2.94557, 2.35653, 0, 0
0, 39.00000, 2.82914, 2.29846, 2.98211, 2.14217, 3.04097, 2.35279, 0, 0
0, 40.00000, 2.89995, 2.29116, 3.05332, 2.14408, 3.10401, 2.35045, 0, 0
0, 41.00000, 2.99506, 2.22798, 3.14313, 2.09771, 3.18191, 2.29108, 0, 0
0, 42.00000, 3.08597, 2.1549, 3.22757, 2.0417, 3.2548, 2.22093, 0, 0
0, 43.00000, 3.14681, 2.09929, 3.28339, 1.99807, 3.30276, 2.16696, 0, 0
0, 44.00000, 3.04022, 2.06616, 3.17169, 1.95476, 3.20243, 2.12432, 0, 0
0, 45.00000, 2.87329, 2.04801, 3.00012, 1.91792, 3.04936, 2.0928, 0, 0
0, 46.00000, 2.7492, 2.03009, 2.87215, 1.88635, 2.93516, 2.06469, 0, 0
0, 47.00000, 2.67217, 2.00802, 2.79152, 1.8567, 2.86289, 2.03573, 0, 0
0, 48.00000, 2.65248, 1.97856, 2.76837, 1.82727, 2.84144, 2.00328, 0, 0
0, 49.00000, 2.63705, 1.95052, 2.74971, 1.79966, 2.82403, 1.97265, 0, 0
0, 50.00000, 2.62778, 1.92992, 2.73807, 1.77962, 2.81309, 1.95029, 0, 0
0, 51.00000, 2.77049, 1.89565, 2.87914, 1.76576, 2.9373, 1.9248, 0, 0
0, 52.00000, 2.8843, 1.86498, 2.9914, 1.75154, 3.03609, 1.901, 0, 0
0, 53.00000, 2.95969, 1.84256, 3.06553, 1.74018, 3.10128, 1.88303, 0, 0
0, 54.00000, 2.91388, 1.87499, 3.02261, 1.76428, 3.06412, 1.91379, 0, 0
0, 55.00000, 2.85633, 1.91526, 2.96849, 1.79418, 3.01727, 1.95186, 0, 0
0, 56.00000, 2.80953, 1.95239, 2.92497, 1.82251, 2.97973, 1.98743, 0, 0
0, 57.00000, 2.77426, 1.97951, 2.89208, 1.84306, 2.95133, 2.01332, 0, 0
0, 58.00000, 2.74108, 2.00478, 2.86112, 1.86217, 2.92461, 2.03743, 0, 0
0, 59.00000, 2.71413, 2.0281, 2.83624, 1.88026, 2.90322, 2.05993, 0, 0
0, 60.00000, 2.73256, 2.04888, 2.85706, 1.90159, 2.92237, 2.08306, 0, 0
0, 61.00000, 2.87413, 2.08381, 3.00462, 1.9509, 3.05448, 2.13036, 0, 0
0, 62.00000, 2.96681, 2.11257, 3.1019, 1.98852, 3.14179, 2.16753, 0, 0
0, 63.00000, 3.03471, 2.13852, 3.1737, 2.02048, 3.20643, 2.19987, 0, 0
0, 64.00000, 3.08525, 2.16248, 3.22768, 2.04854, 3.25515, 2.22886, 0, 0
0, 65.00000, 3.12089, 2.18308, 3.26614, 2.07169, 3.28998, 2.25317, 0, 0
0, 66.00000, 3.1491, 2.20296, 3.29702, 2.0933, 3.31803, 2.27623, 0, 0
0, 67.00000, 3.04902, 2.17219, 3.19208, 2.05301, 3.22376, 2.2365, 0, 0
0, 68.00000, 2.93397, 2.12767, 3.07036, 1.99831, 3.1142, 2.1811, 0, 0
0, 69.00000, 2.84186, 2.08381, 2.97201, 1.94691, 3.0255, 2.12807, 0, 0
0, 70.00000, 2.7998, 2.04924, 2.92552, 1.91011, 2.98315, 2.08856, 0, 0
0, 71.00000, 2.78336, 2.01113, 2.90471, 1.87318, 2.96351, 2.04725, 0, 0
0, 72.00000, 2.77291, 1.98125, 2.8909, 1.8445, 2.95032, 2.01506, 0, 0
0, 73.00000, 2.74521, 1.96932, 2.86154, 1.83014, 2.9239, 2.00048, 0, 0
0, 74.00000, 2.65637, 2.0156, 2.77631, 1.86168, 2.84964, 2.04251, 0, 0
0, 75.00000, 2.58996, 2.05442, 2.71303, 1.88909, 2.79467, 2.07835, 0, 0
0, 76.00000, 2.53605, 2.09005, 2.66213, 1.91511, 2.75059, 2.11177, 0, 0
0, 77.00000, 2.7194, 2.09315, 2.84846, 1.94058, 2.91605, 2.12863, 0, 0
0, 78.00000, 2.88428, 2.09713, 3.01637, 1.96436, 3.06531, 2.14514, 0, 0
0, 79.00000, 2.99263, 2.10227, 3.12702, 1.9822, 3.16381, 2.15862, 0, 0
0, 80.00000, 2.88655, 2.13428, 3.02295, 1.99857, 3.07227, 2.18455, 0, 0
0, 81.00000, 2.69448, 2.18273, 2.83303, 2.01956, 2.90507, 2.22113, 0, 0
0, 82.00000, 2.56599, 2.2182, 2.70631, 2.0363, 2.79368, 2.24877, 0, 0
0, 83.00000, 2.47933, 2.24686, 2.62134, 2.05192, 2.71915, 2.27238, 0, 0
0, 84.00000, 2.43237, 2.26783, 2.5759, 2.06533, 2.67951, 2.29088, 0, 0
0, 85.00000, 2.39735, 2.28529, 2.5422, 2.077, 2.65016, 2.30659, 0, 0
0, 86.00000, 2.39235, 2.29168, 2.53771, 2.08228, 2.64638, 2.31287, 0, 0
0, 87.00000, 2.55434, 2.2179, 2.6943, 2.03466, 2.78301, 2.24749, 0, 0
0, 88.00000, 2.68449, 2.15126, 2.81935, 1.98954, 2.89197, 2.18719, 0, 0
0, 89.00000, 2.77106, 2.10119, 2.90187, 1.95425, 2.96372, 2.14101, 0, 0
0, 90.00000, 2.78604, 2.06653, 2.91341, 1.9243, 2.9729, 2.10572, 0, 0
0, 91.00000, 2.79233, 2.03269, 2.91616, 1.89404, 2.97432, 2.07061, 0, 0
0, 92.00000, 2.79689, 2.00643, 2.91794, 1.87053, 2.97511, 2.04331, 0, 0
0, 93.00000, 2.81512, 1.99039, 2.9347, 1.85804, 2.98953, 2.02779, 0, 0
0, 94.00000, 2.83673, 1.98186, 2.95574, 1.85286, 3.00795, 2.02043, 0, 0
0, 95.00000, 2.85414, 1.97416, 2.9726, 1.84792, 3.0227, 2.01363, 0, 0
0, 96.00000, 2.91359, 1.96434, 3.03179, 1.8462, 3.07501, 2.00763, 0, 0
0, 97.00000, 3.05325, 1.94556, 3.17161, 1.84595, 3.1987, 1.99826, 0, 0
0, 98.00000, 3.16488, 1.93005, 3.28333, 1.84517, 3.29762, 1.99019, 0, 0
0, 99.00000, 3.23409, 1.91987, 3.35256, 1.84412, 3.35892, 1.98458, 0, 0
0, 100.00000, 2.94337, 1.9908, 3.06514, 1.87394, 3.10546, 2.03783, 0, 0
0, 101.00000, 2.74939, 2.04394, 2.87387, 1.89904, 2.93712, 2.0793, 0, 0
0, 102.00000, 2.60433, 2.0875, 2.73124, 1.92118, 2.81182, 2.11425, 0, 0
0, 103.00000, 2.57934, 2.11554, 2.70878, 1.94383, 2.79277, 2.14179, 0, 0
0, 104.00000, 2.58153, 2.13593, 2.71317, 1.96282, 2.79726, 2.16337, 0, 0
0, 105.00000, 2.58296, 2.15516, 2.71672, 1.9806, 2.80101, 2.18371, 0, 0
0, 106.00000, 2.60186, 2.15019, 2.73536, 1.97839, 2.81739, 2.1799, 0, 0
0, 107.00000, 2.63152, 2.12936, 2.76324, 1.96294, 2.8415, 2.16023, 0, 0
0, 108.00000, 2.65557, 2.11021, 2.78559, 1.94836, 2.86075, 2.14188, 0, 0
0, 109.00000, 2.64271, 2.09891, 2.77143, 1.9364, 2.84781, 2.12913, 0, 0
0, 110.00000, 2.53101, 2.09881, 2.65799, 1.92253, 2.74716, 2.12064, 0, 0
0, 111.00000, 2.45678, 2.09735, 2.58249, 1.91201, 2.68015, 2.11355, 0, 0
0, 112.00000, 2.40176, 2.0951, 2.52638, 1.90313, 2.63032, 2.10704, 0, 0
0, 113.00000, 2.41592, 2.08369, 2.53949, 1.89445, 2.64159, 2.09608, 0, 0
0, 114.00000, 2.42745, 2.07392, 2.55016, 1.8869, 2.65078, 2.08668, 0, 0
0, 115.00000, 2.43683, 2.06488, 2.55872, 1.87976, 2.65808, 2.07788, 0, 0
0, 116.00000, 2.63569, 2.03907, 2.75761, 1.88074, 2.83377, 2.06549, 0, 0
0, 117.00000, 2.86955, 2.00816, 2.99177, 1.88102, 3.04077, 2.05044, 0, 0
0, 118.00000, 3.02333, 1.98717, 3.14571, 1.88046, 3.17694, 2.0398, 0, 0
0, 119.00000, 2.99797, 2.00257, 3.12185, 1.89138, 3.15621, 2.05426, 0, 0
0, 120.00000, 2.80193, 2.06408, 2.92937, 1.92393, 2.98702, 2.10438, 0, 0
0, 121.00000, 2.67069, 2.10976, 2.80095, 1.94975, 2.87439, 2.14257, 0, 0
0, 122.00000, 2.56458, 2.14913, 2.69747, 1.97281, 2.78372, 2.17605, 0, 0
0, 123.00000, 2.46984, 2.18276, 2.60488, 1.99196, 2.7026, 2.2043, 0, 0
0, 124.00000, 2.39917, 2.21058, 2.53609, 2.00871, 2.64246, 2.22822, 0, 0
0, 125.00000, 2.342, 2.23575, 2.48073, 2.02469, 2.59415, 2.25037, 0, 0
0, 126.00000, 2.48404, 2.2347, 2.62468, 2.04136, 2.7218, 2.25983, 0, 0
0, 127.00000, 2.61246, 2.23421, 2.75507, 2.05673, 2.83746, 2.26897, 0, 0
0, 128.00000, 2.69705, 2.23544, 2.84112, 2.06825, 2.91388, 2.27661, 0, 0
0, 129.00000, 2.736, 2.23949, 2.88118, 2.07671, 2.94955, 2.28383, 0, 0
0, 130.00000, 2.75912, 2.24557, 2.90532, 2.08514, 2.97115, 2.29197, 0, 0
0, 131.00000, 2.77432, 2.2506, 2.92132, 2.0916, 2.98552, 2.29841, 0, 0
0, 132.00000, 2.83696, 2.23082, 2.98274, 2.08113, 3.03948, 2.28222, 0, 0
0, 133.00000, 2.94816, 2.17973, 3.09024, 2.04781, 3.13345, 2.23681, 0, 0
0, 134.00000, 3.03076, 2.13734, 3.16957, 2.01894, 3.20271, 2.19836, 0, 0
0, 135.00000, 3.07312, 2.10224, 3.20897, 1.99183, 3.23666, 2.16469, 0, 0
0, 136.00000, 2.95023, 2.09105, 3.0829, 1.96674, 3.12422, 2.14379, 0, 0
0, 137.00000, 2.85134, 2.07866, 2.98108, 1.94335, 3.03339, 2.12336, 0, 0
0, 138.00000, 2.78579, 2.06774, 2.91332, 1.92535, 2.97287, 2.10698, 0, 0
0, 139.00000, 2.67141, 2.07222, 2.7977, 1.91546, 2.87032, 2.10321, 0, 0
0, 140.00000, 2.58181, 2.0768, 2.7072, 1.90861, 2.79016, 2.1013, 0, 0
0, 141.00000, 2.51527, 2.07955, 2.63992, 1.90293, 2.73055, 2.09919, 0, 0
0, 142.00000, 2.44163, 2.08338, 2.56561, 1.89733, 2.66475, 2.09772, 0, 0
0, 143.00000, 2.37536, 2.08726, 2.49876, 1.89267, 2.60558, 2.09683, 0, 0
0, 144.00000, 2.32202, 2.08995, 2.4449, 1.88849, 2.55793, 2.09564, 0, 0
0, 145.00000, 2.2905, 2.08394, 2.41228, 1.87906, 2.52882, 2.08697, 0, 0
0, 146.00000, 2.26888, 2.0624, 2.38805, 1.85661, 2.50669, 2.0627, 0, 0
0, 147.00000, 2.25181, 2.0418, 2.36856, 1.83558, 2.48878, 2.03979, 0, 0
0, 148.00000, 2.24141, 2.02661, 2.35638, 1.82034, 2.47754, 2.02303, 0, 0
0, 149.00000, 2.55938, 1.97786, 2.67362, 1.81519, 2.75738, 1.99545, 0, 0
0, 150.00000, 2.7674, 1.94313, 2.88106, 1.80893, 2.94045, 1.97446, 0, 0
0, 151.00000, 2.92047, 1.91605, 3.0336, 1.80278, 3.07513, 1.95738, 0, 0
0, 152.00000, 2.84854, 1.96517, 2.96601, 1.83897, 3.01657, 2.0038, 0, 0
0, 153.00000, 2.75192, 2.02464, 2.87429, 1.88167, 2.93692, 2.05912, 0, 0
0, 154.00000, 2.6734, 2.07933, 2.80044, 1.9222, 2.87299, 2.11078, 0, 0
0, 155.00000, 2.6165, 2.11908, 2.74693, 1.95166, 2.8267, 2.14832, 0, 0
0, 156.00000, 2.56011, 2.15935, 2.69398, 1.98165, 2.78094, 2.18644, 0, 0
0, 157.00000, 2.52228, 2.19005, 2.65884, 2.00512, 2.75072, 2.21585, 0, 0
0, 158.00000, 2.52095, 2.19555, 2.65804, 2.01004, 2.75016, 2.22152, 0, 0
0, 159.00000, 2.61173, 2.1246, 2.74261, 1.95616, 2.82305, 2.15373, 0, 0
0, 160.00000, 2.67248, 2.07068, 2.79848, 1.91418, 2.87101, 2.10156, 0, 0
0, 161.00000, 2.7192, 2.02356, 2.84088, 1.87672, 2.90721, 2.05552, 0, 0
0, 162.00000, 2.86027, 1.97432, 2.97875, 1.84885, 3.02816, 2.01419, 0, 0
0, 163.00000, 2.96427, 1.93333, 3.07997, 1.82394, 3.11686, 1.97883, 0, 0
0, 164.00000, 3.048, 1.89641, 3.16099, 1.80023, 3.18779, 1.94617, 0, 0
0, 165.00000, 2.93115, 1.89224, 3.04207, 1.78216, 3.08194, 1.93326, 0, 0
0, 166.00000, 2.77403, 1.89503, 2.88284, 1.76557, 2.94055, 1.92453, 0, 0
0, 167.00000, 2.66943, 1.89533, 2.7767, 1.75302, 2.8463, 1.91707, 0, 0
0, 168.00000, 2.70509, 1.88424, 2.81151, 1.74729, 2.8769, 1.90792, 0, 0
0, 169.00000, 2.87779, 1.85759, 2.98396, 1.74399, 3.02926, 1.89273, 0, 0
0, 170.00000, 2.99167, 1.83902, 3.0976, 1.74083, 3.12967, 1.88166, 0, 0
0, 171.00000, 3.07271, 1.83491, 3.17945, 1.74685, 3.20235, 1.88331, 0, 0
0, 172.00000, 3.1117, 1.87311, 3.22316, 1.78656, 3.24239, 1.92636, 0, 0
0, 173.00000, 3.13998, 1.90647, 3.25551, 1.82052, 3.27218, 1.96355, 0, 0
0, 174.00000, 3.16214, 1.93824, 3.28147, 1.85228, 3.29624, 1.99861, 0, 0
0, 175.00000, 3.19541, 1.95959, 3.31759, 1.87588, 3.329, 2.02354, 0, 0
0, 176.00000, 3.22458, 1.98156, 3.34961, 1.8995, 3.35816, 2.04881, 0, 0
0, 177.00000, 3.24357, 1.99901, 3.3708, 1.91775, 3.37756, 2.06856, 0, 0
0, 178.00000, 3.24344, 2.00541, 3.3714, 1.9236, 3.37827, 2.07532, 0, 0
0, 179.00000, 3.23783, 2.00685, 3.36585, 1.92425, 3.37337, 2.07641, 0, 0
0, 180.00000, 3.23363, 2.00803, 3.36173, 1.92483, 3.36973, 2.07736, 0, 0
0, 181.00000, 3.13864, 2.01779, 3.26643, 1.92228, 3.28525, 2.08069, 0, 0
0, 182.00000, 2.95126, 2.03849, 3.07828, 1.91866, 3.11855, 2.08857, 0, 0
0, 183.00000, 2.79957, 2.05535, 2.92601, 1.91565, 2.98377, 2.095, 0, 0
0, 184.00000, 2.70738, 2.06649, 2.83356, 1.9146, 2.90202, 2.09982, 0, 0
0, 185.00000, 2.65447, 2.079, 2.78116, 1.9196, 2.85586, 2.10902, 0, 0
0, 186.00000, 2.6118, 2.09002, 2.73902, 1.92443, 2.81882, 2.1174, 0, 0
0, 187.00000, 2.58339, 2.09806, 2.71105, 1.92831, 2.79423, 2.12374, 0, 0
0, 188.00000, 2.69941, 2.09069, 2.82794, 1.93587, 2.89775, 2.12459, 0, 0
0, 189.00000, 2.79797, 2.08368, 2.92727, 1.94148, 2.98577, 2.12455, 0, 0
0, 190.00000, 2.87064, 2.07894, 3.00061, 1.946, 3.05076, 2.12503, 0, 0
0, 191.00000, 2.91554, 2.10116, 3.04862, 1.97182, 3.09409, 2.15174, 0, 0
0, 192.00000, 2.94094, 2.13668, 3.07829, 2.00747, 3.12151, 2.19102, 0, 0
0, 193.00000, 2.96082, 2.17048, 3.10211, 2.04083, 3.14375, 2.22801, 0, 0
0, 194.00000, 2.97982, 2.19468, 3.12401, 2.0653, 3.16396, 2.25487, 0, 0
0, 195.00000, 3.00803, 2.21577, 3.15499, 2.08804, 3.19213, 2.27918, 0, 0
0, 196.00000, 3.03034, 2.23604, 3.17987, 2.10931, 3.21486, 2.30217, 0, 0
0, 197.00000, 3.04391, 2.25102, 3.19533, 2.12468, 3.22904, 2.31898, 0, 0
0, 198.00000, 3.00467, 2.17608, 3.14734, 2.05126, 3.1841, 2.23723, 0, 0
0, 199.00000, 2.97974, 2.11734, 3.11566, 1.99441, 3.15417, 2.17358, 0, 0
0, 200.00000, 2.96056, 2.06154, 3.09014, 1.94097, 3.12976, 2.11348, 0, 0
0, 201.00000, 3.05405, 2.01004, 3.17942, 1.90512, 3.20761, 2.06615, 0, 0
0, 202.00000, 3.14465, 1.96133, 3.26617, 1.87139, 3.2833, 2.02161, 0, 0
0, 203.00000, 3.2177, 1.91691, 3.33562, 1.83946, 3.34373, 1.9803, 0, 0
0, 204.00000, 3.25592, 1.90075, 3.37268, 1.82922, 3.37625, 1.9661, 0, 0
0, 205.00000, 3.28256, 1.89941, 3.39961, 1.83117, 3.40018, 1.96666, 0, 0
0, 206.00000, 3.30019, 1.8987, 3.41744, 1.83263, 3.41604, 1.96721, 0, 0
0, 207.00000, 3.27046, 1.90181, 3.38773, 1.83185, 3.38968, 1.96839, 0, 0
0, 208.00000, 3.09474, 1.92128, 3.21132, 1.8286, 3.2333, 1.9759, 0, 0
0, 209.00000, 2.97748, 1.93441, 3.09362, 1.82645, 3.12904, 1.98101, 0, 0
0, 210.00000, 2.88801, 1.94471, 3.00384, 1.82505, 3.04956, 1.9852, 0, 0
0, 211.00000, 2.81939, 1.96059, 2.93588, 1.83123, 2.98966, 1.99679, 0, 0
0, 212.00000, 2.76845, 1.97361, 2.88556, 1.83693, 2.94537, 2.00669, 0, 0
0, 213.00000, 2.72733, 1.98512, 2.84506, 1.84246, 2.90974, 2.01575, 0, 0
0, 214.00000, 2.8422, 1.9791, 2.96088, 1.85106, 3.01243, 2.01786, 0, 0
0, 215.00000, 2.98682, 1.96897, 3.10668, 1.85936, 3.14168, 2.01797, 0, 0
0, 216.00000, 3.08213, 1.96293, 3.20285, 1.86531, 3.22703, 2.01867, 0, 0
0, 217.00000, 2.99387, 1.95714, 3.11287, 1.84923, 3.14683, 2.00624, 0, 0
0, 218.00000, 2.79022, 1.95084, 2.90532, 1.8187, 2.96221, 1.98445, 0, 0
0, 219.00000, 2.63841, 1.94277, 2.75034, 1.79269, 2.82435, 1.96466, 0, 0
0, 220.00000, 2.59443, 1.92752, 2.7038, 1.77336, 2.78262, 1.94516, 0, 0
0, 221.00000, 2.80638, 1.88756, 2.91466, 1.76275, 2.9686, 1.91893, 0, 0
0, 222.00000, 2.97551, 1.85326, 3.08271, 1.75191, 3.11688, 1.89542, 0, 0
0, 223.00000, 3.08719, 1.82875, 3.19347, 1.74297, 3.21461, 1.8779, 0, 0
0, 224.00000, 2.87659, 1.85225, 2.98241, 1.73883, 3.02772, 1.88718, 0, 0
0, 225.00000, 2.68277, 1.87612, 2.78822, 1.73702, 2.85595, 1.89789, 0, 0
0, 226.00000, 2.55336, 1.89252, 2.65861, 1.73611, 2.74144, 1.90547, 0, 0
0, 227.00000, 2.53415, 1.89762, 2.63958, 1.73844, 2.72472, 1.90934, 0, 0
0, 228.00000, 2.55132, 1.89797, 2.65705, 1.74089, 2.74022, 1.91099, 0, 0
0, 229.00000, 2.564, 1.8985, 2.66998, 1.74294, 2.75171, 1.9125, 0, 0
0, 230.00000, 2.62142, 1.92464, 2.73092, 1.77401, 2.80662, 1.94416, 0, 0
0, 231.00000, 2.72303, 1.98258, 2.8403, 1.83963, 2.90546, 2.01267, 0, 0
0, 232.00000, 2.80332, 2.03836, 2.92783, 1.90059, 2.98488, 2.07731, 0, 0
0, 233.00000, 2.84641, 2.08018, 2.97615, 1.94415, 3.02908, 2.12453, 0, 0
0, 234.00000, 2.83544, 2.12467, 2.96982, 1.98359, 3.02481, 2.1705, 0, 0
0, 235.00000, 2.82605, 2.16637, 2.96478, 2.02068, 3.02159, 2.21367, 0, 0
0, 236.00000, 2.81935, 2.19867, 2.96147, 2.04948, 3.01962, 2.24715, 0, 0
0, 237.00000, 2.70616, 2.16449, 2.84294, 2.00429, 2.91328, 2.20285, 0, 0
0, 238.00000, 2.61296, 2.12657, 2.74418, 1.95809, 2.82447, 2.15597, 0, 0
0, 239.00000, 2.53838, 2.08933, 2.66446, 1.91475, 2.75261, 2.11123, 0, 0
0, 240.00000, 2.5491, 2.0556, 2.67164, 1.88518, 2.75796, 2.07651, 0, 0
0, 241.00000, 2.58659, 2.02095, 2.706, 1.85802, 2.78739, 2.0429, 0, 0
0, 242.00000, 2.6171, 1.9889, 2.73355, 1.83239, 2.81087, 2.01149, 0, 0
0, 243.00000, 2.62171, 1.9652, 2.7357, 1.81121, 2.81206, 1.98693, 0, 0
0, 244.00000, 2.5956, 1.94001, 2.70651, 1.78489, 2.78539, 1.9585, 0, 0
0, 245.00000, 2.57858, 1.92007, 2.6871, 1.76451, 2.76756, 1.93627, 0, 0
0, 246.00000, 2.56698, 1.90377, 2.67358, 1.74815, 2.75505, 1.91827, 0, 0
0, 247.00000, 2.80743, 1.86208, 2.91297, 1.73952, 2.96633, 1.8922, 0, 0
0, 248.00000, 2.96505, 1.83199, 3.06978, 1.73115, 3.10475, 1.87227, 0, 0
0, 249.00000, 3.09113, 1.8061, 3.195, 1.72268, 3.21531, 1.85434, 0, 0
0, 250.00000, 3.10544, 1.83736, 3.21294, 1.75302, 3.23223, 1.88829, 0, 0
0, 251.00000, 3.107, 1.87485, 3.21862, 1.78758, 3.2384, 1.92788, 0, 0
0, 252.00000, 3.10777, 1.91016, 3.22321, 1.82003, 3.24355, 1.96507, 0, 0
0, 253.00000, 3.1076, 1.93592, 3.22585, 1.84359, 3.24668, 1.99216, 0, 0
0, 254.00000, 3.10682, 1.96203, 3.2279, 1.86746, 3.24926, 2.0196, 0, 0
0, 255.00000, 3.10603, 1.98236, 3.22928, 1.88597, 3.25113, 2.0409, 0, 0
0, 256.00000, 3.09307, 1.998, 3.21785, 1.89872, 3.24144, 2.05642, 0, 0
0, 257.00000, 3.03823, 2.01152, 3.16363, 1.90451, 3.19361, 2.06661, 0, 0
0, 258.00000, 3.00173, 2.02138, 3.12762, 1.90914, 3.16189, 2.07428, 0, 0
0, 259.00000, 2.97392, 2.02974, 3.10023, 1.91342, 3.13781, 2.08097, 0, 0
0, 260.00000, 2.78529, 2.05348, 2.91135, 1.91218, 2.97069, 2.092, 0, 0
0, 261.00000, 2.6334, 2.07398, 2.75929, 1.91238, 2.8363, 2.1022, 0, 0
0, 262.00000, 2.53211, 2.08815, 2.65798, 1.91288, 2.74684, 2.10952, 0, 0
0, 263.00000, 2.56114, 2.11038, 2.68969, 1.93691, 2.77565, 2.13498, 0, 0
0, 264.00000, 2.61814, 2.1371, 2.75046, 1.9684, 2.8304, 2.16734, 0, 0
0, 265.00000, 2.65547, 2.15853, 2.79067, 1.99264, 2.86674, 2.19267, 0, 0
0, 266.00000, 2.75124, 2.1713, 2.8892, 2.01612, 2.9546, 2.21319, 0, 0
0, 267.00000, 2.87789, 2.17608, 3.01837, 2.03593, 3.0695, 2.22767, 0, 0
0, 268.00000, 2.97097, 2.18188, 3.11363, 2.05253, 3.15432, 2.24075, 0, 0
0, 269.00000, 3.02047, 2.17996, 3.16383, 2.05671, 3.19889, 2.24249, 0, 0
0, 270.00000, 2.98608, 2.14925, 3.12552, 2.02438, 3.16394, 2.20758, 0, 0
0, 271.00000, 2.95884, 2.11971, 3.09467, 1.99406, 3.13558, 2.17452, 0, 0
0, 272.00000, 2.94113, 2.09639, 3.07416, 1.97056, 3.11661, 2.14869, 0, 0
0, 273.00000, 2.87438, 2.08293, 3.00493, 1.95007, 3.05472, 2.12956, 0, 0
0, 274.00000, 2.81467, 2.06871, 2.94274, 1.92975, 2.99904, 2.11014, 0, 0
0, 275.00000, 2.77524, 2.05687, 2.90142, 1.9141, 2.96197, 2.09476, 0, 0
