hour, t(sec), V1, VAngle1, V2, VAngle2, V3, VAngle3, V4, VAngle4, I1, IAngle1, I2, IAngle2, I3, IAngle3, I4, IAngle4
0, 0.00000, 126.47, 0.237294, 126.479, -119.825, 126.485, 120.197, 0, 0, 78.2406, 136.833, 68.6184, 24.8047, 71.1395, -98.6663, 13.1869, -65.3628
0, 1.00000, 127.03, 1.68964E-007, 127.03, -120, 127.03, 120, 0, 0, 6.35285E-005, -89.251, 6.36656E-005, 153.103, 6.32761E-005, 30.8961, 2.77451E-006, 53.4956
0, 2.00000, 126.376, 0.271685, 126.354, -119.799, 126.383, 120.227, 0, 0, 90.5143, 137.422, 82.4396, 26.6377, 83.4321, -97.8266, 16.1382, -74.4647
0, 3.00000, 126.41, 0.265784, 126.4, -119.803, 126.42, 120.222, 0, 0, 87.0535, 136.501, 78.0327, 25.3456, 79.7503, -98.8476, 15.3274, -71.3887
0, 4.00000, 126.433, 0.261027, 126.43, -119.807, 126.445, 120.218, 0, 0, 84.6287, 135.934, 75.0278, 24.4842, 77.2071, -99.4923, 14.7715, -69.1386
0, 5.00000, 126.426, 0.255999, 126.421, -119.811, 126.437, 120.213, 0, 0, 84.3842, 136.836, 75.3434, 25.4593, 77.2138, -98.5522, 14.6408, -70.0067
0, 6.00000, 126.415, 0.251567, 126.406, -119.814, 126.425, 120.209, 0, 0, 84.5322, 137.851, 76.1568, 26.577, 77.6427, -97.4942, 14.5935, -71.2583
0, 7.00000, 126.406, 0.247459, 126.394, -119.817, 126.416, 120.206, 0, 0, 84.5882, 138.725, 76.7793, 27.5159, 77.9414, -96.5901, 14.5353, -72.2836
0, 8.00000, 126.405, 0.247602, 126.393, -119.817, 126.415, 120.206, 0, 0, 84.6539, 138.735, 76.8555, 27.5349, 78.0026, -96.5704, 14.5552, -72.3759
0, 9.00000, 126.409, 0.250719, 126.398, -119.815, 126.419, 120.209, 0, 0, 84.836, 138.21, 76.7174, 26.9985, 78.022, -97.0923, 14.6546, -71.994
0, 10.00000, 126.412, 0.253128, 126.402, -119.813, 126.422, 120.211, 0, 0, 85.0124, 137.825, 76.6598, 26.6056, 78.0771, -97.476, 14.7378, -71.7359
0, 11.00000, 126.411, 0.255018, 126.4, -119.812, 126.421, 120.212, 0, 0, 85.3777, 137.662, 76.9544, 26.4661, 78.3813, -97.6283, 14.8491, -71.8498
0, 12.00000, 126.4, 0.256567, 126.386, -119.811, 126.409, 120.213, 0, 0, 86.4249, 137.984, 78.3164, 26.9081, 79.4999, -97.2663, 15.0934, -72.9413
0, 13.00000, 126.393, 0.257807, 126.376, -119.81, 126.401, 120.214, 0, 0, 87.1514, 138.168, 79.2378, 27.1698, 80.2648, -97.0551, 15.2686, -73.6389
0, 14.00000, 126.387, 0.258924, 126.369, -119.809, 126.395, 120.215, 0, 0, 87.7284, 138.286, 79.9525, 27.3458, 80.8644, -96.917, 15.4119, -74.1541
0, 15.00000, 126.38, 0.258053, 126.359, -119.81, 126.387, 120.215, 0, 0, 88.1517, 138.702, 80.7015, 27.8184, 81.4057, -96.481, 15.4897, -74.8771
0, 16.00000, 126.374, 0.257251, 126.352, -119.81, 126.381, 120.214, 0, 0, 88.4774, 139.043, 81.2932, 28.2006, 81.8285, -96.1247, 15.549, -75.453
0, 17.00000, 126.37, 0.256646, 126.347, -119.811, 126.377, 120.213, 0, 0, 88.6845, 139.276, 81.6811, 28.4581, 82.1033, -95.8832, 15.5848, -75.8312
0, 18.00000, 126.369, 0.256168, 126.345, -119.811, 126.375, 120.213, 0, 0, 88.7307, 139.393, 81.811, 28.5825, 82.1823, -95.7621, 15.5885, -75.9878
0, 19.00000, 126.368, 0.255796, 126.344, -119.811, 126.375, 120.213, 0, 0, 88.7331, 139.466, 81.8629, 28.6583, 82.2061, -95.687, 15.5845, -76.0739
0, 20.00000, 126.368, 0.255442, 126.343, -119.812, 126.374, 120.212, 0, 0, 88.7278, 139.531, 81.9003, 28.7236, 82.2194, -95.6213, 15.5774, -76.1412
0, 21.00000, 126.389, 0.256966, 126.372, -119.81, 126.397, 120.214, 0, 0, 87.2925, 138.418, 79.5553, 27.4532, 80.4684, -96.7797, 15.294, -74.0669
0, 22.00000, 126.424, 0.260044, 126.418, -119.808, 126.435, 120.216, 0, 0, 85.1548, 136.483, 75.9335, 25.1735, 77.7969, -98.8229, 14.9082, -70.5566
0, 23.00000, 126.452, 0.262795, 126.456, -119.806, 126.465, 120.219, 0, 0, 83.5411, 134.817, 73.1183, 23.1342, 75.7436, -100.608, 14.6467, -67.5686
0, 24.00000, 126.471, 0.264729, 126.481, -119.804, 126.486, 120.22, 0, 0, 82.5119, 133.653, 71.2888, 21.6645, 74.4192, -101.871, 14.496, -65.4935
0, 25.00000, 126.492, 0.26677, 126.509, -119.802, 126.509, 120.222, 0, 0, 81.388, 132.334, 69.2959, 19.947, 72.9743, -103.318, 14.3418, -63.126
0, 26.00000, 126.506, 0.268284, 126.528, -119.801, 126.524, 120.223, 0, 0, 80.6904, 131.42, 68.0211, 18.7311, 72.06, -104.33, 14.2596, -61.519
0, 27.00000, 126.517, 0.269587, 126.542, -119.8, 126.535, 120.224, 0, 0, 80.1989, 130.697, 67.0881, 17.7561, 71.3984, -105.135, 14.2104, -60.2862
0, 28.00000, 126.492, 0.270306, 126.51, -119.8, 126.509, 120.225, 0, 0, 81.9587, 131.945, 69.6546, 19.5437, 73.4086, -103.719, 14.5093, -63.1645
0, 29.00000, 126.473, 0.270995, 126.484, -119.799, 126.488, 120.225, 0, 0, 83.4044, 132.887, 71.7506, 20.861, 75.0556, -102.658, 14.7753, -65.3558
0, 30.00000, 126.46, 0.271604, 126.466, -119.799, 126.474, 120.226, 0, 0, 84.3959, 133.475, 73.1681, 21.6728, 76.1762, -101.999, 14.9692, -66.7531
0, 31.00000, 126.436, 0.271701, 126.434, -119.799, 126.448, 120.226, 0, 0, 86.1137, 134.652, 75.7623, 23.2193, 78.1762, -100.704, 15.3035, -69.2785
0, 32.00000, 126.41, 0.271667, 126.4, -119.799, 126.42, 120.226, 0, 0, 87.9673, 135.874, 78.5719, 24.7726, 80.3418, -99.3745, 15.6819, -71.8354
0, 33.00000, 126.393, 0.271734, 126.377, -119.799, 126.402, 120.226, 0, 0, 89.2239, 136.642, 80.4607, 25.7265, 81.8037, -98.5466, 15.9492, -73.4446
0, 34.00000, 126.408, 0.272435, 126.396, -119.799, 126.417, 120.227, 0, 0, 88.2861, 135.919, 78.9449, 24.8553, 80.6714, -99.3171, 15.7586, -72.0783
0, 35.00000, 126.442, 0.273778, 126.442, -119.797, 126.454, 120.228, 0, 0, 86.0553, 134.167, 75.3767, 22.6617, 77.9804, -101.214, 15.3256, -68.7031
0, 36.00000, 126.469, 0.274884, 126.478, -119.796, 126.484, 120.229, 0, 0, 84.3148, 132.68, 72.5733, 20.7257, 75.8713, -102.847, 15.0132, -65.8183
0, 37.00000, 126.478, 0.275439, 126.49, -119.796, 126.493, 120.229, 0, 0, 83.8285, 132.189, 71.755, 20.0754, 75.2627, -103.391, 14.934, -64.9128
0, 38.00000, 126.453, 0.274733, 126.457, -119.797, 126.467, 120.229, 0, 0, 85.379, 133.485, 74.2143, 21.7958, 77.1238, -101.957, 15.2111, -67.4863
0, 39.00000, 126.438, 0.274283, 126.436, -119.797, 126.45, 120.228, 0, 0, 86.4275, 134.313, 75.8706, 22.8665, 78.3783, -101.049, 15.4095, -69.127
0, 40.00000, 126.426, 0.273959, 126.42, -119.797, 126.437, 120.228, 0, 0, 87.2141, 134.911, 77.1099, 23.6259, 79.3183, -100.398, 15.5627, -70.31
0, 41.00000, 126.408, 0.265607, 126.397, -119.804, 126.418, 120.221, 0, 0, 87.1702, 136.61, 78.2071, 25.5064, 79.7902, -98.6331, 15.4195, -72.1049
0, 42.00000, 126.396, 0.258481, 126.38, -119.809, 126.404, 120.215, 0, 0, 87.025, 137.959, 78.9541, 26.9448, 80.0563, -97.2503, 15.2707, -73.4464
0, 43.00000, 126.386, 0.251855, 126.367, -119.814, 126.393, 120.209, 0, 0, 86.811, 139.147, 79.5081, 28.1732, 80.2037, -96.0479, 15.1126, -74.5551
0, 44.00000, 126.409, 0.24788, 126.399, -119.817, 126.419, 120.206, 0, 0, 84.3991, 138.526, 76.4267, 27.3082, 77.6488, -96.7395, 14.5412, -72.2221
0, 45.00000, 126.44, 0.24418, 126.439, -119.82, 126.452, 120.203, 0, 0, 81.525, 137.507, 72.6179, 25.9254, 74.5364, -97.8649, 13.9137, -68.9267
0, 46.00000, 126.46, 0.241175, 126.467, -119.822, 126.474, 120.2, 0, 0, 79.5401, 136.85, 70.047, 24.9797, 72.4153, -98.6052, 13.4934, -66.5449
0, 47.00000, 126.471, 0.237762, 126.481, -119.824, 126.486, 120.197, 0, 0, 78.2081, 136.705, 68.5075, 24.6574, 71.0753, -98.8009, 13.1919, -65.1893
0, 48.00000, 126.475, 0.234208, 126.486, -119.827, 126.49, 120.194, 0, 0, 77.3915, 136.947, 67.7569, 24.83, 70.3421, -98.5754, 12.9759, -64.6899
0, 49.00000, 126.478, 0.230849, 126.49, -119.83, 126.493, 120.191, 0, 0, 76.6596, 137.208, 67.1053, 25.0322, 69.6943, -98.3295, 12.7802, -64.2655
0, 50.00000, 126.474, 0.228309, 126.485, -119.832, 126.489, 120.189, 0, 0, 76.5769, 137.732, 67.3114, 25.6043, 69.7459, -97.7906, 12.7063, -64.749
0, 51.00000, 126.451, 0.225339, 126.454, -119.834, 126.464, 120.187, 0, 0, 77.8503, 139.235, 69.5844, 27.3931, 71.3893, -96.2069, 12.8488, -67.5842
0, 52.00000, 126.433, 0.222644, 126.43, -119.836, 126.445, 120.185, 0, 0, 78.8608, 140.441, 71.4179, 28.7767, 72.708, -94.9529, 12.9662, -69.7925
0, 53.00000, 126.421, 0.220616, 126.414, -119.838, 126.432, 120.183, 0, 0, 79.5129, 141.253, 72.6294, 29.6804, 73.5711, -94.1188, 13.042, -71.2278
0, 54.00000, 126.433, 0.225442, 126.43, -119.834, 126.445, 120.187, 0, 0, 79.2893, 140.106, 71.7032, 28.4715, 73.0448, -95.278, 13.1056, -69.8174
0, 55.00000, 126.442, 0.22967, 126.442, -119.831, 126.454, 120.19, 0, 0, 79.2258, 139.163, 71.0756, 27.4676, 72.729, -96.2366, 13.187, -68.7574
0, 56.00000, 126.449, 0.233613, 126.451, -119.828, 126.462, 120.194, 0, 0, 79.2707, 138.338, 70.6365, 26.5841, 72.5512, -97.0797, 13.2817, -67.9122
0, 57.00000, 126.454, 0.236499, 126.459, -119.825, 126.468, 120.196, 0, 0, 79.271, 137.706, 70.2613, 25.8942, 72.3814, -97.7296, 13.3447, -67.2321
0, 58.00000, 126.46, 0.239417, 126.466, -119.823, 126.474, 120.199, 0, 0, 79.3079, 137.085, 69.9334, 25.2122, 72.2506, -98.3708, 13.4148, -66.5949
0, 59.00000, 126.464, 0.241668, 126.471, -119.822, 126.478, 120.201, 0, 0, 79.3861, 136.636, 69.751, 24.7201, 72.2056, -98.834, 13.4774, -66.1781
0, 60.00000, 126.454, 0.244862, 126.458, -119.819, 126.468, 120.203, 0, 0, 80.5689, 136.729, 71.0967, 24.9579, 73.3822, -98.701, 13.7533, -67.3016
0, 61.00000, 126.431, 0.249952, 126.427, -119.815, 126.442, 120.208, 0, 0, 83.0968, 137.287, 74.2047, 25.8455, 76.0094, -98.0476, 14.3247, -69.9319
0, 62.00000, 126.415, 0.25397, 126.406, -119.812, 126.426, 120.211, 0, 0, 84.8675, 137.563, 76.3216, 26.3204, 77.8222, -97.7136, 14.7481, -71.5407
0, 63.00000, 126.404, 0.257576, 126.391, -119.81, 126.413, 120.214, 0, 0, 86.2932, 137.701, 77.9775, 26.6026, 79.2605, -97.5337, 15.1021, -72.6824
0, 64.00000, 126.395, 0.260618, 126.38, -119.808, 126.404, 120.217, 0, 0, 87.3752, 137.741, 79.1918, 26.744, 80.3334, -97.4634, 15.3792, -73.4442
0, 65.00000, 126.389, 0.263508, 126.371, -119.805, 126.397, 120.219, 0, 0, 88.3098, 137.724, 80.2067, 26.8078, 81.2445, -97.4567, 15.6249, -74.0305
0, 66.00000, 126.384, 0.26577, 126.365, -119.804, 126.392, 120.221, 0, 0, 88.9819, 137.676, 80.9098, 26.8133, 81.8885, -97.4908, 15.8045, -74.3881
0, 67.00000, 126.41, 0.259004, 126.399, -119.809, 126.42, 120.215, 0, 0, 86.0532, 137.263, 77.4235, 26.1133, 78.8982, -97.9874, 15.0772, -72.0472
0, 68.00000, 126.429, 0.253069, 126.424, -119.813, 126.44, 120.21, 0, 0, 83.7424, 137.042, 74.7538, 25.6467, 76.5724, -98.2798, 14.5094, -70.1575
0, 69.00000, 126.444, 0.247382, 126.444, -119.817, 126.456, 120.205, 0, 0, 81.7406, 136.958, 72.5148, 25.345, 74.5928, -98.426, 14.0191, -68.5119
0, 70.00000, 126.449, 0.243065, 126.451, -119.821, 126.462, 120.202, 0, 0, 80.6926, 137.205, 71.5205, 25.5023, 73.6362, -98.2028, 13.739, -67.9169
0, 71.00000, 126.452, 0.238978, 126.455, -119.824, 126.465, 120.198, 0, 0, 79.8534, 137.545, 70.8062, 25.7838, 72.9083, -97.8769, 13.5019, -67.5723
0, 72.00000, 126.454, 0.235119, 126.458, -119.827, 126.467, 120.195, 0, 0, 79.0948, 137.893, 70.1792, 26.0807, 72.2586, -97.5419, 13.2848, -67.2802
0, 73.00000, 126.462, 0.23551, 126.468, -119.826, 126.476, 120.195, 0, 0, 78.5766, 137.463, 69.355, 25.5472, 71.6377, -98.0018, 13.2018, -66.3489
0, 74.00000, 126.477, 0.240625, 126.488, -119.822, 126.492, 120.2, 0, 0, 78.2594, 136.088, 68.2025, 23.965, 70.962, -99.442, 13.2646, -64.5668
0, 75.00000, 126.487, 0.244552, 126.502, -119.819, 126.503, 120.203, 0, 0, 78.157, 135.106, 67.5194, 22.822, 70.6035, -100.477, 13.3369, -63.3977
0, 76.00000, 126.485, 0.247856, 126.499, -119.817, 126.501, 120.206, 0, 0, 78.8069, 134.814, 68.0463, 22.5616, 71.1518, -100.765, 13.5158, -63.674
0, 77.00000, 126.452, 0.249511, 126.456, -119.816, 126.466, 120.207, 0, 0, 81.4355, 136.291, 71.7714, 24.5663, 74.1055, -99.1292, 14.0054, -67.5465
0, 78.00000, 126.426, 0.251189, 126.421, -119.815, 126.437, 120.209, 0, 0, 83.6222, 137.361, 74.8271, 25.9794, 76.5439, -97.956, 14.4507, -70.4145
0, 79.00000, 126.409, 0.252578, 126.398, -119.814, 126.419, 120.21, 0, 0, 85.1212, 138.004, 76.8882, 26.8185, 78.2002, -97.2538, 14.7752, -72.198
0, 80.00000, 126.441, 0.256466, 126.441, -119.81, 126.454, 120.213, 0, 0, 83.3168, 136.041, 73.6528, 24.4954, 75.8718, -99.3302, 14.489, -68.7511
0, 81.00000, 126.471, 0.260559, 126.481, -119.807, 126.486, 120.217, 0, 0, 81.8323, 134.104, 70.8469, 22.1135, 73.8864, -101.41, 14.2954, -65.4724
0, 82.00000, 126.491, 0.263642, 126.507, -119.805, 126.507, 120.219, 0, 0, 80.9547, 132.736, 69.0846, 20.3786, 72.6657, -102.898, 14.2062, -63.2364
0, 83.00000, 126.503, 0.26621, 126.523, -119.803, 126.52, 120.221, 0, 0, 80.5797, 131.832, 68.1502, 19.2253, 72.0609, -103.886, 14.1989, -61.9082
0, 84.00000, 126.51, 0.268243, 126.533, -119.801, 126.528, 120.223, 0, 0, 80.4439, 131.23, 67.6527, 18.4599, 71.7705, -104.543, 14.2201, -61.1124
0, 85.00000, 126.515, 0.270126, 126.54, -119.8, 126.534, 120.225, 0, 0, 80.3834, 130.718, 67.289, 17.8095, 71.5764, -105.103, 14.2516, -60.4809
0, 86.00000, 126.505, 0.2678, 126.527, -119.802, 126.523, 120.223, 0, 0, 80.6575, 131.51, 68.0399, 18.837, 72.0459, -104.233, 14.2464, -61.6108
0, 87.00000, 126.479, 0.259968, 126.491, -119.808, 126.494, 120.216, 0, 0, 81.1831, 133.764, 69.9488, 21.6318, 73.1625, -101.795, 14.1718, -64.5681
0, 88.00000, 126.461, 0.254007, 126.468, -119.812, 126.476, 120.211, 0, 0, 81.4735, 135.322, 71.2148, 23.477, 73.8748, -100.139, 14.1025, -66.5201
0, 89.00000, 126.45, 0.249272, 126.453, -119.816, 126.464, 120.207, 0, 0, 81.5364, 136.411, 71.955, 24.7148, 74.2403, -98.9995, 14.0188, -67.7582
0, 90.00000, 126.45, 0.244842, 126.452, -119.819, 126.463, 120.203, 0, 0, 80.9027, 136.956, 71.5993, 25.2506, 73.7734, -98.4539, 13.8135, -67.8252
0, 91.00000, 126.449, 0.241406, 126.452, -119.822, 126.462, 120.2, 0, 0, 80.4113, 137.381, 71.3202, 25.6658, 73.4094, -98.0289, 13.6537, -67.8738
0, 92.00000, 126.449, 0.238174, 126.451, -119.824, 126.462, 120.198, 0, 0, 79.9491, 137.784, 71.0546, 26.055, 73.0666, -97.6289, 13.5015, -67.9082
0, 93.00000, 126.445, 0.237245, 126.446, -119.825, 126.458, 120.197, 0, 0, 80.108, 138.088, 71.4133, 26.405, 73.3058, -97.3099, 13.5101, -68.3755
0, 94.00000, 126.441, 0.236361, 126.441, -119.826, 126.454, 120.196, 0, 0, 80.246, 138.368, 71.7338, 26.7223, 73.5167, -97.0195, 13.5172, -68.7934
0, 95.00000, 126.439, 0.235685, 126.438, -119.826, 126.451, 120.196, 0, 0, 80.3248, 138.563, 71.939, 26.941, 73.6478, -96.8175, 13.5173, -69.0699
0, 96.00000, 126.419, 0.234637, 126.411, -119.827, 126.43, 120.195, 0, 0, 81.6974, 139.628, 74.1148, 28.2084, 75.2926, -95.6954, 13.7543, -71.3391
0, 97.00000, 126.398, 0.233562, 126.383, -119.828, 126.407, 120.194, 0, 0, 83.1877, 140.714, 76.4606, 29.4702, 77.0741, -94.561, 14.0274, -73.6528
0, 98.00000, 126.381, 0.232637, 126.361, -119.829, 126.389, 120.193, 0, 0, 84.3919, 141.563, 78.3541, 30.4304, 78.5142, -93.6832, 14.2552, -75.4286
0, 99.00000, 126.395, 0.234578, 126.379, -119.827, 126.403, 120.195, 0, 0, 83.5939, 140.74, 76.9318, 29.5348, 77.4906, -94.5225, 14.1254, -73.9719
0, 100.00000, 126.435, 0.240083, 126.432, -119.823, 126.447, 120.199, 0, 0, 81.3022, 138.241, 72.8247, 26.6984, 74.5239, -97.1168, 13.7872, -69.5364
0, 101.00000, 126.467, 0.245122, 126.476, -119.819, 126.482, 120.204, 0, 0, 79.6567, 136.047, 69.6923, 24.0894, 72.3117, -99.4381, 13.598, -65.7705
0, 102.00000, 126.485, 0.248698, 126.5, -119.816, 126.501, 120.207, 0, 0, 78.9019, 134.687, 68.0727, 22.4291, 71.2131, -100.894, 13.5499, -63.6142
0, 103.00000, 126.484, 0.251662, 126.499, -119.814, 126.5, 120.209, 0, 0, 79.4436, 134.398, 68.4807, 22.1597, 71.6596, -101.181, 13.7033, -63.7792
0, 104.00000, 126.484, 0.253965, 126.498, -119.812, 126.5, 120.211, 0, 0, 79.8586, 134.17, 68.7868, 21.9446, 71.9982, -101.408, 13.8217, -63.8901
0, 105.00000, 126.483, 0.256133, 126.497, -119.811, 126.499, 120.213, 0, 0, 80.2436, 133.953, 69.0664, 21.7379, 72.3107, -101.625, 13.9322, -63.9852
0, 106.00000, 126.478, 0.253992, 126.491, -119.812, 126.494, 120.211, 0, 0, 80.2601, 134.459, 69.3886, 22.3351, 72.464, -101.088, 13.8904, -64.5577
0, 107.00000, 126.474, 0.251683, 126.484, -119.814, 126.489, 120.209, 0, 0, 80.2203, 134.959, 69.647, 22.9106, 72.5615, -100.562, 13.8349, -65.0737
0, 108.00000, 126.471, 0.249905, 126.48, -119.815, 126.485, 120.208, 0, 0, 80.1581, 135.319, 69.7971, 23.3174, 72.5996, -100.186, 13.7865, -65.4106
0, 109.00000, 126.482, 0.24883, 126.495, -119.816, 126.498, 120.207, 0, 0, 79.1778, 134.859, 68.4696, 22.6671, 71.5275, -100.701, 13.5984, -64.0516
0, 110.00000, 126.499, 0.247982, 126.518, -119.817, 126.516, 120.206, 0, 0, 77.8233, 134.047, 66.549, 21.5324, 70.0026, -101.61, 13.3649, -61.9255
0, 111.00000, 126.51, 0.247258, 126.534, -119.817, 126.528, 120.205, 0, 0, 76.9054, 133.509, 65.2688, 20.7588, 68.9806, -102.219, 13.2104, -60.4517
0, 112.00000, 126.515, 0.246336, 126.54, -119.818, 126.533, 120.205, 0, 0, 76.4393, 133.366, 64.6955, 20.5174, 68.4943, -102.39, 13.1222, -59.843
0, 113.00000, 126.513, 0.245152, 126.537, -119.819, 126.531, 120.204, 0, 0, 76.3996, 133.625, 64.7986, 20.8262, 68.5227, -102.113, 13.0871, -60.091
0, 114.00000, 126.511, 0.244049, 126.534, -119.82, 126.529, 120.203, 0, 0, 76.3446, 133.852, 64.8673, 21.091, 68.527, -101.873, 13.0518, -60.2904
0, 115.00000, 126.504, 0.243234, 126.526, -119.82, 126.522, 120.202, 0, 0, 76.6663, 134.3, 65.461, 21.6685, 68.9483, -101.387, 13.0784, -61.094
0, 116.00000, 126.456, 0.241016, 126.461, -119.822, 126.47, 120.2, 0, 0, 79.8102, 137.068, 70.4729, 25.2488, 72.7336, -98.3735, 13.5377, -67.0193
0, 117.00000, 126.425, 0.239459, 126.419, -119.823, 126.436, 120.199, 0, 0, 81.9544, 138.779, 73.8787, 27.3375, 75.309, -96.5507, 13.9012, -70.6431
0, 118.00000, 126.402, 0.23824, 126.388, -119.824, 126.411, 120.198, 0, 0, 83.5664, 139.99, 76.4327, 28.7607, 77.2435, -95.2788, 14.1944, -73.1731
0, 119.00000, 126.431, 0.243143, 126.427, -119.821, 126.442, 120.202, 0, 0, 82.0773, 138.08, 73.5803, 26.6051, 75.2394, -97.2586, 13.9956, -69.9889
0, 120.00000, 126.457, 0.248068, 126.462, -119.817, 126.47, 120.206, 0, 0, 80.88, 136.232, 71.1315, 24.4405, 73.5528, -99.2057, 13.8741, -67.0205
0, 121.00000, 126.478, 0.252602, 126.49, -119.813, 126.493, 120.21, 0, 0, 80.0652, 134.636, 69.287, 22.5178, 72.3254, -100.906, 13.8267, -64.5848
0, 122.00000, 126.494, 0.255914, 126.511, -119.811, 126.51, 120.213, 0, 0, 79.484, 133.431, 67.9503, 21.0205, 71.4399, -102.207, 13.8027, -62.7466
0, 123.00000, 126.509, 0.259266, 126.532, -119.808, 126.527, 120.216, 0, 0, 78.9849, 132.236, 66.7256, 19.5029, 70.6441, -103.507, 13.7989, -60.973
0, 124.00000, 126.519, 0.261816, 126.545, -119.806, 126.538, 120.218, 0, 0, 78.7268, 131.398, 65.9743, 18.4264, 70.1795, -104.424, 13.8172, -59.7973
0, 125.00000, 126.512, 0.263682, 126.536, -119.805, 126.531, 120.219, 0, 0, 79.5051, 131.578, 66.8848, 18.7598, 70.9652, -104.202, 13.9767, -60.6924
0, 126.00000, 126.488, 0.264532, 126.504, -119.804, 126.505, 120.22, 0, 0, 81.2702, 132.77, 69.4358, 20.4564, 72.9733, -102.853, 14.2785, -63.5362
0, 127.00000, 126.469, 0.265426, 126.479, -119.804, 126.484, 120.221, 0, 0, 82.7395, 133.661, 71.5351, 21.7, 74.6332, -101.852, 14.5523, -65.7111
0, 128.00000, 126.458, 0.266143, 126.464, -119.803, 126.472, 120.221, 0, 0, 83.6444, 134.151, 72.8038, 22.378, 75.645, -101.303, 14.7312, -66.9484
0, 129.00000, 126.454, 0.26702, 126.458, -119.802, 126.467, 120.222, 0, 0, 84.0959, 134.276, 73.3646, 22.5734, 76.1178, -101.157, 14.8309, -67.4235
0, 130.00000, 126.45, 0.267866, 126.453, -119.802, 126.464, 120.223, 0, 0, 84.4816, 134.36, 73.8294, 22.7133, 76.5142, -101.057, 14.9197, -67.8018
0, 131.00000, 126.448, 0.268534, 126.45, -119.801, 126.461, 120.223, 0, 0, 84.7545, 134.404, 74.1485, 22.7936, 76.7899, -101.002, 14.9841, -68.0511
0, 132.00000, 126.429, 0.263583, 126.424, -119.805, 126.44, 120.219, 0, 0, 85.3595, 135.872, 75.7551, 24.5177, 77.8052, -99.4474, 15.0174, -70.0786
0, 133.00000, 126.413, 0.258765, 126.403, -119.809, 126.423, 120.215, 0, 0, 85.7789, 137.142, 77.045, 25.9541, 78.5896, -98.1204, 15.0187, -71.7376
0, 134.00000, 126.4, 0.254313, 126.386, -119.812, 126.409, 120.211, 0, 0, 86.0568, 138.217, 78.0584, 27.131, 79.1824, -97.0118, 14.9972, -73.0724
