hour, t(sec), P1 (kW), Q1 (kvar), P2 (kW), Q2 (kvar), P3 (kW), Q3 (kvar), P4 (kW), Q4 (kvar)
0, 0.00000, 6.67354, 5.94806, 7.26913, 5.35441, 7.48545, 6.16702, 0, 0
0, 1.00000, -2.73434E-007, 1.2861E-005, -2.70598E-007, 1.26912E-005, -1.24945E-007, 1.27785E-005, 0, 0
0, 2.00000, 8.02329, 6.68847, 8.77275, 6.23768, 8.78842, 7.11213, 0, 0
0, 3.00000, 7.51746, 6.58602, 8.22921, 6.0717, 8.31875, 6.94525, 0, 0
0, 4.00000, 7.181, 6.49718, 7.86539, 5.9416, 8.00435, 6.81209, 0, 0
0, 5.00000, 7.30091, 6.36098, 7.97528, 5.83128, 8.09683, 6.68015, 0, 0
0, 6.00000, 7.47584, 6.23468, 8.14463, 5.73791, 8.24046, 6.56548, 0, 0
0, 7.00000, 7.6173, 6.11946, 8.28001, 5.65012, 8.35513, 6.45871, 0, 0
0, 8.00000, 7.62555, 6.12205, 8.28894, 5.65277, 8.36365, 6.46191, 0, 0
0, 9.00000, 7.56316, 6.20493, 8.23265, 5.71983, 8.31801, 6.54217, 0, 0
0, 10.00000, 7.52098, 6.26846, 8.19547, 5.77199, 8.28818, 6.60434, 0, 0
0, 11.00000, 7.53298, 6.31438, 8.21297, 5.81549, 8.30502, 6.65382, 0, 0
0, 12.00000, 7.69238, 6.3386, 8.38316, 5.85938, 8.45278, 6.69722, 0, 0
0, 13.00000, 7.79727, 6.36003, 8.49573, 5.89314, 8.55083, 6.73147, 0, 0
0, 14.00000, 7.87627, 6.38069, 8.58106, 5.92274, 8.62525, 6.76208, 0, 0
0, 15.00000, 7.98744, 6.34905, 8.69427, 5.90859, 8.72231, 6.74095, 0, 0
0, 16.00000, 8.07639, 6.32108, 8.78455, 5.89469, 8.79973, 6.72117, 0, 0
0, 17.00000, 8.13552, 6.30076, 8.84438, 5.88389, 8.85096, 6.70621, 0, 0
0, 18.00000, 8.15909, 6.28677, 8.86742, 5.87397, 8.87074, 6.6938, 0, 0
0, 19.00000, 8.17091, 6.27635, 8.87874, 5.86582, 8.88035, 6.68408, 0, 0
0, 20.00000, 8.18061, 6.26675, 8.88772, 5.85817, 8.88801, 6.67483, 0, 0
0, 21.00000, 7.85159, 6.33343, 8.55024, 5.87428, 8.59854, 6.70891, 0, 0
0, 22.00000, 7.32124, 6.45723, 8.007, 5.91524, 8.1335, 6.78011, 0, 0
0, 23.00000, 6.89099, 6.56428, 7.56701, 5.95396, 7.75755, 6.84457, 0, 0
0, 24.00000, 6.60156, 6.63844, 7.27138, 5.9818, 7.50513, 6.89021, 0, 0
0, 25.00000, 6.27926, 6.71843, 6.94183, 6.01021, 7.22388, 6.93812, 0, 0
0, 26.00000, 6.06426, 6.7756, 6.72249, 6.0326, 7.03684, 6.97414, 0, 0
0, 27.00000, 5.90013, 6.8231, 6.55529, 6.05308, 6.89456, 7.00547, 0, 0
0, 28.00000, 6.26776, 6.80789, 6.93917, 6.091, 7.2243, 7.0309, 0, 0
0, 29.00000, 6.55966, 6.79868, 7.24473, 6.12355, 7.48687, 7.05439, 0, 0
0, 30.00000, 6.7519, 6.79644, 7.4465, 6.14834, 7.66047, 7.07394, 0, 0
0, 31.00000, 7.11513, 6.7663, 7.82438, 6.17128, 7.98505, 7.08301, 0, 0
0, 32.00000, 7.5032, 6.73058, 8.22822, 6.19203, 8.33211, 7.08918, 0, 0
0, 33.00000, 7.75868, 6.70938, 8.49441, 6.20773, 8.56099, 7.09571, 0, 0
0, 34.00000, 7.54249, 6.74583, 8.27209, 6.21144, 8.37008, 7.11048, 0, 0
0, 35.00000, 7.02755, 6.82552, 7.73989, 6.21358, 7.91368, 7.13646, 0, 0
0, 36.00000, 6.6103, 6.89071, 7.30878, 6.21539, 7.54438, 7.15795, 0, 0
0, 37.00000, 6.48187, 6.91647, 7.17616, 6.22115, 7.43117, 7.17008, 0, 0
0, 38.00000, 6.84745, 6.86583, 7.55455, 6.22567, 7.75539, 7.15811, 0, 0
0, 39.00000, 7.08842, 6.83288, 7.804, 6.22881, 7.96935, 7.15056, 0, 0
0, 40.00000, 7.26621, 6.80881, 7.98815, 6.23125, 8.12736, 7.14524, 0, 0
0, 41.00000, 7.54562, 6.57575, 8.25545, 6.05514, 8.35139, 6.93018, 0, 0
0, 42.00000, 7.75026, 6.38013, 8.44831, 5.90295, 8.51254, 6.74607, 0, 0
0, 43.00000, 7.91644, 6.20047, 8.60258, 5.76008, 8.64089, 6.57449, 0, 0
0, 44.00000, 7.56572, 6.13238, 8.22699, 5.64882, 8.31512, 6.46328, 0, 0
0, 45.00000, 7.11105, 6.08058, 7.74359, 5.53792, 7.89728, 6.35704, 0, 0
0, 46.00000, 6.80858, 6.03263, 7.42066, 5.4514, 7.61797, 6.27209, 0, 0
0, 47.00000, 6.65124, 5.96162, 7.24746, 5.36382, 7.46706, 6.17906, 0, 0
0, 48.00000, 6.6036, 5.87726, 7.18802, 5.27922, 7.41373, 6.08436, 0, 0
0, 49.00000, 6.56638, 5.79679, 7.13995, 5.19975, 7.37021, 5.99499, 0, 0
0, 50.00000, 6.63265, 5.72776, 7.20139, 5.14527, 7.42146, 5.92905, 0, 0
0, 51.00000, 6.97903, 5.623, 7.55306, 5.09723, 7.72138, 5.85724, 0, 0
0, 52.00000, 7.25657, 5.53134, 7.83402, 5.05137, 7.96096, 5.79144, 0, 0
0, 53.00000, 7.44042, 5.46466, 8.01938, 5.01539, 8.11898, 5.74141, 0, 0
0, 54.00000, 7.2559, 5.60102, 7.8414, 5.11554, 7.96909, 5.86534, 0, 0
0, 55.00000, 7.11499, 5.71882, 7.70678, 5.20458, 7.85624, 5.9742, 0, 0
0, 56.00000, 7.00042, 5.82722, 7.59872, 5.28865, 7.76599, 6.07608, 0, 0
0, 57.00000, 6.9079, 5.90735, 7.51064, 5.34965, 7.69226, 6.15049, 0, 0
0, 58.00000, 6.81985, 5.98793, 7.42725, 5.41177, 7.62251, 6.22587, 0, 0
0, 59.00000, 6.76069, 6.0493, 7.37205, 5.46007, 7.57665, 6.28414, 0, 0
0, 60.00000, 6.89493, 6.11718, 7.52014, 5.54153, 7.70606, 6.3708, 0, 0
0, 61.00000, 7.23893, 6.21335, 7.8922, 5.67827, 8.02895, 6.51155, 0, 0
0, 62.00000, 7.46409, 6.29335, 8.13775, 5.78327, 8.24266, 6.62171, 0, 0
0, 63.00000, 7.63311, 6.36809, 8.32377, 5.87563, 8.40492, 6.71999, 0, 0
0, 64.00000, 7.75131, 6.43327, 8.45541, 5.95198, 8.52017, 6.80239, 0, 0
0, 65.00000, 7.84501, 6.49685, 8.5611, 6.02348, 8.613, 6.88031, 0, 0
0, 66.00000, 7.90627, 6.54777, 8.63123, 6.07892, 8.67479, 6.94117, 0, 0
0, 67.00000, 7.53818, 6.41179, 8.22959, 5.90274, 8.32473, 6.75604, 0, 0
0, 68.00000, 7.26665, 6.28821, 7.93027, 5.75109, 8.06361, 6.59436, 0, 0
0, 69.00000, 7.04925, 6.16587, 7.68822, 5.60801, 7.85185, 6.44031, 0, 0
0, 70.00000, 6.97969, 6.06458, 7.60366, 5.50483, 7.77643, 6.32507, 0, 0
0, 71.00000, 6.94438, 5.96586, 7.55551, 5.40878, 7.73239, 6.21657, 0, 0
0, 72.00000, 6.91724, 5.8721, 7.51645, 5.31847, 7.69629, 6.11422, 0, 0
0, 73.00000, 6.80052, 5.89219, 7.39639, 5.32061, 7.59345, 6.12244, 0, 0
0, 74.00000, 6.56478, 6.04073, 7.1656, 5.4246, 7.39878, 6.25299, 0, 0
0, 75.00000, 6.40694, 6.15278, 7.01248, 5.50582, 7.26999, 6.3537, 0, 0
0, 76.00000, 6.42629, 6.23374, 7.04126, 5.58327, 7.29709, 6.44108, 0, 0
0, 77.00000, 6.91548, 6.2312, 7.55448, 5.64962, 7.73864, 6.4938, 0, 0
0, 78.00000, 7.30435, 6.23831, 7.9637, 5.71036, 8.09124, 6.54534, 0, 0
0, 79.00000, 7.5599, 6.25014, 8.23349, 5.75667, 8.32405, 6.58675, 0, 0
0, 80.00000, 7.06529, 6.39077, 7.73054, 5.8177, 7.89421, 6.68036, 0, 0
0, 81.00000, 6.60933, 6.53366, 7.26776, 5.8858, 7.49961, 6.77993, 0, 0
0, 82.00000, 6.30441, 6.63802, 6.95923, 5.93918, 7.23703, 6.85569, 0, 0
0, 83.00000, 6.12178, 6.71862, 6.77636, 5.98776, 7.08201, 6.92007, 0, 0
0, 84.00000, 6.01033, 6.77946, 6.66611, 6.02818, 6.98885, 6.97174, 0, 0
0, 85.00000, 5.92011, 6.83463, 6.57752, 6.0663, 6.9142, 7.0198, 0, 0
0, 86.00000, 6.07609, 6.7626, 6.73289, 6.02193, 7.04593, 6.96106, 0, 0
0, 87.00000, 6.49204, 6.52967, 7.14365, 5.86562, 7.39292, 6.76195, 0, 0
0, 88.00000, 6.76811, 6.35626, 7.41414, 5.74437, 7.62104, 6.60979, 0, 0
0, 89.00000, 6.94427, 6.22242, 7.58422, 5.64555, 7.76383, 6.48819, 0, 0
0, 90.00000, 6.96352, 6.11032, 7.59181, 5.54484, 7.76739, 6.37169, 0, 0
0, 91.00000, 6.97744, 6.02345, 7.59663, 5.46658, 7.76929, 6.28125, 0, 0
0, 92.00000, 6.98969, 5.94188, 7.60025, 5.39302, 7.7703, 6.19621, 0, 0
0, 93.00000, 7.05134, 5.91323, 7.66178, 5.37515, 7.82255, 6.17284, 0, 0
0, 94.00000, 7.10692, 5.88628, 7.71704, 5.35803, 7.86946, 6.15053, 0, 0
0, 95.00000, 7.14392, 5.86615, 7.75362, 5.34465, 7.90041, 6.13342, 0, 0
0, 96.00000, 7.44563, 5.81354, 8.06406, 5.33807, 8.16661, 6.11138, 0, 0
0, 97.00000, 7.76537, 5.75852, 8.39357, 5.33161, 8.44919, 6.0891, 0, 0
0, 98.00000, 8.02107, 5.71305, 8.65696, 5.32485, 8.67521, 6.06964, 0, 0
0, 99.00000, 7.81311, 5.77937, 8.44686, 5.35719, 8.4956, 6.11712, 0, 0
0, 100.00000, 7.19857, 5.97073, 7.82321, 5.44873, 7.96295, 6.25069, 0, 0
0, 101.00000, 6.699, 6.1408, 7.31782, 5.53581, 7.53235, 6.37422, 0, 0
0, 102.00000, 6.41616, 6.25541, 7.03353, 5.60187, 7.29083, 6.4633, 0, 0
0, 103.00000, 6.42422, 6.32858, 7.0502, 5.67055, 7.30708, 6.54169, 0, 0
0, 104.00000, 6.42886, 6.38563, 7.06139, 5.72381, 7.31827, 6.6025, 0, 0
0, 105.00000, 6.43182, 6.43939, 7.07054, 5.77385, 7.32756, 6.65976, 0, 0
0, 106.00000, 6.51331, 6.37866, 7.14929, 5.72928, 7.39368, 6.60474, 0, 0
0, 107.00000, 6.58756, 6.31445, 7.22005, 5.68045, 7.45286, 6.5452, 0, 0
0, 108.00000, 6.6373, 6.26568, 7.26679, 5.64247, 7.49176, 6.49923, 0, 0
0, 109.00000, 6.46969, 6.2537, 7.08984, 5.60783, 7.33911, 6.46783, 0, 0
0, 110.00000, 6.21285, 6.25565, 6.82036, 5.57337, 7.10748, 6.44062, 0, 0
0, 111.00000, 6.04231, 6.25298, 6.64111, 5.54682, 6.95325, 6.41847, 0, 0
0, 112.00000, 5.97595, 6.23597, 6.56944, 5.52167, 6.89129, 6.3928, 0, 0
0, 113.00000, 6.01155, 6.20318, 6.60324, 5.49646, 6.91944, 6.36224, 0, 0
0, 114.00000, 6.04053, 6.17309, 6.63025, 5.47275, 6.9419, 6.33363, 0, 0
0, 115.00000, 6.13909, 6.14421, 6.72987, 5.46004, 7.02699, 6.31376, 0, 0
0, 116.00000, 6.86873, 6.02366, 7.48209, 5.45157, 7.67085, 6.2688, 0, 0
0, 117.00000, 7.34737, 5.94234, 7.97541, 5.44329, 8.09358, 6.23671, 0, 0
0, 118.00000, 7.69947, 5.88082, 8.33822, 5.4353, 8.40468, 6.21123, 0, 0
0, 119.00000, 7.25514, 6.04194, 7.89061, 5.52223, 8.02296, 6.33243, 0, 0
0, 120.00000, 6.85037, 6.20075, 7.48338, 5.61235, 7.67644, 6.45475, 0, 0
0, 121.00000, 6.52206, 6.3432, 7.15467, 5.69778, 7.39732, 6.56834, 0, 0
0, 122.00000, 6.27648, 6.44782, 6.90859, 5.7597, 7.18846, 6.65119, 0, 0
0, 123.00000, 6.03952, 6.55278, 6.67156, 5.82307, 6.98748, 6.7353, 0, 0
0, 124.00000, 5.8813, 6.63076, 6.51418, 5.87264, 6.85429, 6.79978, 0, 0
0, 125.00000, 5.98159, 6.66848, 6.62315, 5.92167, 6.94913, 6.85068, 0, 0
0, 126.00000, 6.33941, 6.65732, 6.99759, 5.9619, 7.27075, 6.8796, 0, 0
0, 127.00000, 6.62468, 6.65385, 7.29681, 5.99884, 7.528, 6.90843, 0, 0
0, 128.00000, 6.79208, 6.65659, 7.47307, 6.02476, 7.67976, 6.93042, 0, 0
0, 129.00000, 6.85638, 6.67266, 7.54246, 6.04863, 7.73984, 6.9548, 0, 0
0, 130.00000, 6.90765, 6.68913, 7.59816, 6.07099, 7.78823, 6.97805, 0, 0
0, 131.00000, 6.94141, 6.70274, 7.6351, 6.08822, 7.82044, 6.99623, 0, 0
0, 132.00000, 7.24268, 6.55245, 7.93445, 5.99162, 8.07426, 6.87112, 0, 0
0, 133.00000, 7.49073, 6.41028, 8.17898, 5.89481, 8.28127, 6.74859, 0, 0
0, 134.00000, 7.69071, 6.28168, 8.37455, 5.80385, 8.44645, 6.63498, 0, 0
0, 135.00000, 7.52895, 6.22894, 8.19908, 5.7328, 8.29368, 6.56122, 0, 0
0, 136.00000, 7.232, 6.19703, 7.88359, 5.66218, 8.02099, 6.4939, 0, 0
0, 137.00000, 7.03495, 6.16718, 7.67331, 5.60721, 7.83907, 6.44003, 0, 0
0, 138.00000, 6.83651, 6.15624, 7.46387, 5.56935, 7.65845, 6.4061, 0, 0
0, 139.00000, 6.5358, 6.18028, 7.15093, 5.54931, 7.3898, 6.39751, 0, 0
0, 140.00000, 6.33581, 6.19423, 6.94252, 5.53408, 7.21088, 6.38958, 0, 0
0, 141.00000, 6.17236, 6.20406, 6.77218, 5.52007, 7.06463, 6.38152, 0, 0
0, 142.00000, 5.97303, 6.22152, 6.56491, 5.50793, 6.88696, 6.37731, 0, 0
0, 143.00000, 5.81251, 6.23416, 6.39792, 5.49678, 6.7438, 6.37245, 0, 0
0, 144.00000, 5.70594, 6.24139, 6.28696, 5.48826, 6.64867, 6.368, 0, 0
0, 145.00000, 5.63798, 6.18285, 6.20913, 5.4245, 6.58031, 6.2983, 0, 0
0, 146.00000, 5.59173, 6.12441, 6.15413, 5.364, 6.53147, 6.23125, 0, 0
0, 147.00000, 5.55811, 6.07324, 6.11321, 5.31189, 6.49501, 6.17329, 0, 0
0, 148.00000, 6.03194, 5.96294, 6.59726, 5.27752, 6.90819, 6.10981, 0, 0
0, 149.00000, 6.66085, 5.8356, 7.24291, 5.24881, 7.46005, 6.04629, 0, 0
0, 150.00000, 7.16167, 5.7287, 7.75653, 5.22029, 7.89939, 5.98966, 0, 0
0, 151.00000, 7.27469, 5.74253, 7.87716, 5.24871, 8.00358, 6.01737, 0, 0
0, 152.00000, 6.96072, 5.95738, 7.5718, 5.40322, 7.74618, 6.2095, 0, 0
0, 153.00000, 6.75007, 6.12014, 7.36897, 5.52397, 7.57582, 6.35803, 0, 0
0, 154.00000, 6.58384, 6.26182, 7.21031, 5.63136, 7.44307, 6.48913, 0, 0
0, 155.00000, 6.43246, 6.3817, 7.06486, 5.7207, 7.3211, 6.59888, 0, 0
0, 156.00000, 6.30951, 6.49188, 6.94809, 5.80503, 7.22363, 6.70148, 0, 0
0, 157.00000, 6.22697, 6.57571, 6.87079, 5.87082, 7.15934, 6.78083, 0, 0
0, 158.00000, 6.40781, 6.42144, 7.04322, 5.75391, 7.30361, 6.63795, 0, 0
0, 159.00000, 6.60546, 6.22788, 7.22903, 5.60309, 7.45833, 6.45551, 0, 0
0, 160.00000, 6.73794, 6.08081, 7.35159, 5.48599, 7.5599, 6.31483, 0, 0
0, 161.00000, 7.01705, 5.92984, 7.62743, 5.38575, 7.79343, 6.1864, 0, 0
0, 162.00000, 7.32089, 5.7935, 7.93101, 5.30229, 8.05135, 6.07627, 0, 0
0, 163.00000, 7.56512, 5.67144, 8.17361, 5.22354, 8.25726, 5.97446, 0, 0
0, 164.00000, 7.51746, 5.6168, 8.11799, 5.16642, 8.20776, 5.91168, 0, 0
0, 165.00000, 7.06017, 5.63608, 7.64015, 5.12056, 7.79661, 5.88059, 0, 0
0, 166.00000, 6.7553, 5.64393, 7.32115, 5.08517, 7.52213, 5.85458, 0, 0
0, 167.00000, 6.54246, 5.64638, 7.09803, 5.05743, 7.33029, 5.83304, 0, 0
0, 168.00000, 7.05039, 5.55325, 7.62005, 5.04281, 7.77727, 5.79137, 0, 0
0, 169.00000, 7.38338, 5.48719, 7.96201, 5.02829, 8.07012, 5.75884, 0, 0
0, 170.00000, 7.64973, 5.43145, 8.23529, 5.0138, 8.3042, 5.72973, 0, 0
0, 171.00000, 7.76438, 5.51839, 8.36547, 5.10984, 8.41875, 5.83467, 0, 0
0, 172.00000, 7.85422, 5.63114, 8.47255, 5.22626, 8.51402, 5.96419, 0, 0
0, 173.00000, 7.91229, 5.7201, 8.54362, 5.31632, 8.57764, 6.06496, 0, 0
0, 174.00000, 7.99111, 5.79535, 8.63488, 5.39663, 8.6583, 6.15351, 0, 0
0, 175.00000, 8.06741, 5.85604, 8.72192, 5.4631, 8.73496, 6.22638, 0, 0
0, 176.00000, 8.12769, 5.91457, 8.79193, 5.52533, 8.7969, 6.2952, 0, 0
0, 177.00000, 8.14753, 5.94609, 8.81643, 5.55712, 8.81884, 6.33088, 0, 0
0, 178.00000, 8.13115, 5.951, 8.79983, 5.55941, 8.80461, 6.33429, 0, 0
0, 179.00000, 8.11798, 5.95534, 8.78638, 5.5616, 8.79317, 6.33732, 0, 0
0, 180.00000, 8.10968, 5.95832, 8.77809, 5.56317, 8.78609, 6.3396, 0, 0
0, 181.00000, 7.51573, 6.03983, 8.16397, 5.55649, 8.25843, 6.35955, 0, 0
0, 182.00000, 7.1206, 6.09659, 7.75537, 5.55399, 7.9079, 6.37502, 0, 0
0, 183.00000, 6.80101, 6.14274, 7.42507, 5.55194, 7.62469, 6.38779, 0, 0
0, 184.00000, 6.6534, 6.18062, 7.27428, 5.56616, 7.49598, 6.41109, 0, 0
0, 185.00000, 6.53262, 6.21743, 7.15156, 5.58321, 7.39134, 6.43633, 0, 0
0, 186.00000, 6.45217, 6.24421, 7.07012, 5.5966, 7.32199, 6.45557, 0, 0
0, 187.00000, 6.60659, 6.23729, 7.23112, 5.61196, 7.46041, 6.46547, 0, 0
0, 188.00000, 6.91924, 6.20589, 7.55582, 5.62682, 7.73902, 6.46765, 0, 0
0, 189.00000, 7.12536, 6.18666, 7.77007, 5.63781, 7.92303, 6.47056, 0, 0
0, 190.00000, 7.26772, 6.21204, 7.92246, 5.68098, 8.055, 6.51353, 0, 0
0, 191.00000, 7.34003, 6.32079, 8.01068, 5.79133, 8.13388, 6.63686, 0, 0
0, 192.00000, 7.39652, 6.42441, 8.0817, 5.89478, 8.19778, 6.75297, 0, 0
0, 193.00000, 7.43043, 6.50051, 8.12607, 5.96973, 8.23792, 6.83757, 0, 0
0, 194.00000, 7.51777, 6.57054, 8.22566, 6.04639, 8.32564, 6.92151, 0, 0
0, 195.00000, 7.57445, 6.62613, 8.29145, 6.10543, 8.38389, 6.98672, 0, 0
0, 196.00000, 7.61565, 6.67496, 8.3403, 6.15613, 8.42729, 7.04311, 0, 0
0, 197.00000, 7.54597, 6.52142, 8.24989, 6.00493, 8.34522, 6.87278, 0, 0
0, 198.00000, 7.47505, 6.34091, 8.15496, 5.82863, 8.25864, 6.67358, 0, 0
0, 199.00000, 7.42032, 6.16914, 8.07809, 5.66267, 8.18782, 6.48555, 0, 0
0, 200.00000, 7.56555, 6.02014, 8.21341, 5.5453, 8.30071, 6.34378, 0, 0
0, 201.00000, 7.84369, 5.84913, 8.48617, 5.42602, 8.53135, 6.19397, 0, 0
0, 202.00000, 8.02884, 5.72106, 8.66603, 5.33332, 8.68322, 6.079, 0, 0
0, 203.00000, 8.15819, 5.63862, 8.79256, 5.27498, 8.7903, 6.00618, 0, 0
0, 204.00000, 8.22567, 5.63345, 8.86286, 5.27949, 8.85079, 6.00829, 0, 0
0, 205.00000, 8.27984, 5.62993, 8.91932, 5.28361, 8.89951, 6.01057, 0, 0
0, 206.00000, 8.31339, 5.62806, 8.95438, 5.28646, 8.92971, 6.01237, 0, 0
0, 207.00000, 7.86649, 5.68914, 8.4925, 5.28138, 8.53263, 6.02739, 0, 0
0, 208.00000, 7.50713, 5.74084, 8.12098, 5.27949, 8.21359, 6.04177, 0, 0
0, 209.00000, 7.26751, 5.77568, 7.87328, 5.27834, 8.00111, 6.05162, 0, 0
0, 210.00000, 7.07551, 5.82367, 7.67719, 5.29583, 7.83347, 6.08081, 0, 0
0, 211.00000, 6.93552, 5.86617, 7.53508, 5.31556, 7.71215, 6.11009, 0, 0
0, 212.00000, 6.82256, 5.90368, 7.42073, 5.33433, 7.61471, 6.13703, 0, 0
0, 213.00000, 7.02013, 5.89532, 7.62664, 5.35429, 7.79193, 6.15006, 0, 0
0, 214.00000, 7.41807, 5.85644, 8.04005, 5.37389, 8.14696, 6.15381, 0, 0
0, 215.00000, 7.68016, 5.83275, 8.31253, 5.38828, 8.38127, 6.15816, 0, 0
0, 216.00000, 7.6862, 5.81635, 8.31788, 5.37387, 8.38524, 6.14217, 0, 0
0, 217.00000, 7.06226, 5.80791, 7.66181, 5.27948, 7.81967, 6.06292, 0, 0
0, 218.00000, 6.64544, 5.79141, 7.22256, 5.20584, 7.44112, 5.99842, 0, 0
0, 219.00000, 6.32743, 5.77017, 6.88635, 5.14138, 7.15144, 5.93982, 0, 0
0, 220.00000, 6.91407, 5.63972, 7.48665, 5.10353, 7.66472, 5.86749, 0, 0
0, 221.00000, 7.37965, 5.52569, 7.9624, 5.0633, 8.07146, 5.79917, 0, 0
0, 222.00000, 7.68671, 5.44485, 8.27557, 5.03126, 8.33932, 5.74802, 0, 0
0, 223.00000, 7.2472, 5.50047, 7.82127, 5.02147, 7.94906, 5.75813, 0, 0
0, 224.00000, 6.77087, 5.57498, 7.32993, 5.02367, 7.52785, 5.78348, 0, 0
0, 225.00000, 6.4154, 5.63192, 6.9633, 5.0262, 7.21392, 5.80355, 0, 0
0, 226.00000, 6.29543, 5.65762, 6.84015, 5.03297, 7.10876, 5.81704, 0, 0
0, 227.00000, 6.34269, 5.65778, 6.88968, 5.03983, 7.15135, 5.82251, 0, 0
0, 228.00000, 6.38052, 5.65886, 6.92949, 5.04613, 7.18565, 5.82793, 0, 0
0, 229.00000, 6.46845, 5.69824, 7.02583, 5.09487, 7.26967, 5.87926, 0, 0
0, 230.00000, 6.77178, 5.88642, 7.36517, 5.31123, 7.5666, 6.11271, 0, 0
0, 231.00000, 6.96938, 6.03674, 7.58942, 5.47763, 7.7636, 6.29415, 0, 0
0, 232.00000, 7.11659, 6.17275, 7.75942, 5.62376, 7.91344, 6.45496, 0, 0
0, 233.00000, 7.08719, 6.30703, 7.74368, 5.74354, 7.90344, 6.59382, 0, 0
0, 234.00000, 7.06211, 6.43317, 7.73156, 5.8564, 7.89633, 6.72454, 0, 0
0, 235.00000, 7.04426, 6.53088, 7.72378, 5.94405, 7.89223, 6.82595, 0, 0
0, 236.00000, 6.80753, 6.46622, 7.46832, 5.85136, 7.67041, 6.73105, 0, 0
0, 237.00000, 6.52976, 6.345, 7.16301, 5.70056, 7.40448, 6.57119, 0, 0
0, 238.00000, 6.3463, 6.24573, 6.95932, 5.58313, 7.22664, 6.44532, 0, 0
0, 239.00000, 6.33231, 6.13796, 6.93238, 5.48164, 7.20073, 6.32947, 0, 0
0, 240.00000, 6.43249, 6.0316, 7.02568, 5.39758, 7.27817, 6.2283, 0, 0
0, 241.00000, 6.51403, 5.93349, 7.1002, 5.3185, 7.33971, 6.13363, 0, 0
0, 242.00000, 6.53975, 5.86209, 7.11929, 5.25621, 7.35424, 6.06104, 0, 0
0, 243.00000, 6.47019, 5.78729, 7.03797, 5.17737, 7.28228, 5.97404, 0, 0
0, 244.00000, 6.42481, 5.72798, 6.98379, 5.11619, 7.23413, 5.90617, 0, 0
0, 245.00000, 6.39189, 5.67603, 6.9434, 5.06362, 7.19801, 5.84744, 0, 0
0, 246.00000, 6.9656, 5.5519, 7.53087, 5.02971, 7.70046, 5.78034, 0, 0
0, 247.00000, 7.38634, 5.45389, 7.96132, 4.99797, 8.06867, 5.72387, 0, 0
0, 248.00000, 7.72267, 5.37001, 8.30486, 4.96719, 8.36262, 5.67279, 0, 0
0, 249.00000, 7.78441, 5.44345, 8.37799, 5.04347, 8.42759, 5.75752, 0, 0
0, 250.00000, 7.78868, 5.56668, 8.3965, 5.15775, 8.44673, 5.8886, 0, 0
0, 251.00000, 7.7903, 5.66255, 8.40904, 5.24641, 8.46006, 5.99033, 0, 0
0, 252.00000, 7.78972, 5.74777, 8.41817, 5.32495, 8.47012, 6.08061, 0, 0
0, 253.00000, 7.78781, 5.8188, 8.42414, 5.39022, 8.47713, 6.15559, 0, 0
0, 254.00000, 7.78561, 5.87997, 8.42876, 5.44634, 8.48272, 6.22013, 0, 0
0, 255.00000, 7.75176, 5.93251, 8.39936, 5.49015, 8.45866, 6.27216, 0, 0
0, 256.00000, 7.62098, 5.97151, 8.26641, 5.50809, 8.34503, 6.29875, 0, 0
0, 257.00000, 7.51544, 6.00577, 8.1595, 5.52508, 8.25375, 6.32319, 0, 0
0, 258.00000, 7.44521, 6.0308, 8.08849, 5.53841, 8.19327, 6.3417, 0, 0
0, 259.00000, 6.95536, 6.11013, 7.58355, 5.54342, 7.76024, 6.37079, 0, 0
0, 260.00000, 6.59275, 6.17213, 7.20987, 5.54988, 7.4402, 6.39544, 0, 0
0, 261.00000, 6.29963, 6.22392, 6.90793, 5.55631, 7.18195, 6.41692, 0, 0
0, 262.00000, 6.37456, 6.28881, 6.99343, 5.62686, 7.25726, 6.49379, 0, 0
0, 263.00000, 6.52204, 6.36575, 7.1569, 5.71856, 7.39995, 6.59196, 0, 0
0, 264.00000, 6.61861, 6.42778, 7.26523, 5.7894, 7.49477, 6.66858, 0, 0
0, 265.00000, 6.82763, 6.46111, 7.48811, 5.84943, 7.6876, 6.72727, 0, 0
0, 266.00000, 7.19406, 6.47025, 7.87401, 5.90902, 8.02007, 6.77849, 0, 0
0, 267.00000, 7.43489, 6.4834, 8.12857, 5.95454, 8.23973, 6.81971, 0, 0
0, 268.00000, 7.56301, 6.47547, 8.26262, 5.96492, 8.35496, 6.82607, 0, 0
0, 269.00000, 7.47418, 6.38583, 8.15909, 5.86987, 8.26346, 6.721, 0, 0
0, 270.00000, 7.40388, 6.29938, 8.07553, 5.7805, 8.18907, 6.6216, 0, 0
0, 271.00000, 7.35822, 6.23093, 8.01983, 5.71109, 8.13922, 6.54398, 0, 0
0, 272.00000, 7.1694, 6.19011, 7.81702, 5.64712, 7.96346, 6.47947, 0, 0
0, 273.00000, 7.03122, 6.15413, 7.66787, 5.59462, 7.83409, 6.42574, 0, 0
0, 274.00000, 6.92923, 6.12067, 7.55705, 5.54954, 7.73775, 6.37881, 0, 0
0, 275.00000, 7.22399, 5.99996, 7.85242, 5.47936, 7.98906, 6.28389, 0, 0
